[08/02/2023 11:07:36] - Open port COM9 (C:\Program Files\Electronic Team, Inc\Serial Port Monitor\SerialMonitorx64.exe)	
	
[08/02/2023 11:07:36] Read data (COM9)	
    28 10 9e 97 00 02 04 00 00 09 97 99 e1 28 10 9e   (.ž—......—™á(.ž	
    97 00 02 d8 35                                    —..Ø5           	
[08/02/2023 11:07:37] Read data (COM9)	
    28 03 9f 5f 00 0a dc 32 28 03 14 00 00 00 00 0a   (.Ÿ_..Ü2(.......	
    44 00 00 2a 9b 00 00 00 00 00 16 6e d5 02 16 d4   D..*›......nÕ..Ô	
    2c                                                ,               	
[08/02/2023 11:07:38] Read data (COM9)	
    28 10 9e 97 00 02 04 00 00 09 95 18 20 28 10 9e   (.ž—......•. (.ž	
    97 00 02 d8 35                                    —..Ø5           	
[08/02/2023 11:07:39] Read data (COM9)	
    28 03 9f 5f 00 0a dc 32 28 03 14 00 00 00 00 0a   (.Ÿ_..Ü2(.......	
    3f 00 00 2a b2 00 00 00 00 00 16 6e d7 02 16 cb   ?..*²......n×..Ë	
    93                                                “               	
[08/02/2023 11:07:40] Read data (COM9)	
    28 10 9e 97 00 02 04 00 00 09 94 d9 e0 28 10 9e   (.ž—......”Ùà(.ž	
    97 00 02 d8 35                                    —..Ø5           	
[08/02/2023 11:07:41] Read data (COM9)	
    28 03 9f 5f 00 0a dc 32 28 03 14 00 00 00 00 0a   (.Ÿ_..Ü2(.......	
    43 00 00 2a 95 00 00 00 00 00 16 6e d8 02 16 36   C..*•......nØ..6	
    05                                                .               	
[08/02/2023 11:07:42] Read data (COM9)	
    28 10 9e 97 00 02 04 00 00 09 94 d9 e0 28 10 9e   (.ž—......”Ùà(.ž	
    97 00 02 d8 35 28 03 9e 03 00 10 9c 17 28 03 20   —..Ø5(.ž...œ.(. 	
    46 52 4f 3a 33 32 35 35 35 39 32 39 00 00 00 00   FRO:32555929....	
    00 00 00 00 00 00 00 00 00 00 00 00 00 00 00 00   ................	
    e4 00                                             ä.              	
[08/02/2023 11:07:43] Read data (COM9)	
    28 03 9f 5f 00 0a dc 32 28 03 14 00 00 00 00 0a   (.Ÿ_..Ü2(.......	
    3c 00 00 2a 7b 00 00 00 00 00 16 6e d9 02 16 3b   <..*{......nÙ..;	
    ce                                                Î               	
[08/02/2023 11:07:44] Read data (COM9)	
    28 10 9e 97 00 02 04 00 00 09 94 d9 e0 28 10 9e   (.ž—......”Ùà(.ž	
    97 00 02 d8 35                                    —..Ø5           	
[08/02/2023 11:07:45] Read data (COM9)	
    28 03 9f 5f 00 0a dc 32 28 03 14 00 00 00 00 0a   (.Ÿ_..Ü2(.......	
    3f 00 00 2a 87 00 00 00 00 00 16 6e da 02 16 b4   ?..*‡......nÚ..´	
    9c                                                œ               	
[08/02/2023 11:07:46] Read data (COM9)	
    28 10 9e 97 00 02 04 00 00 09 93 98 22 28 10 9e   (.ž—......“˜"(.ž	
    97 00 02 d8 35                                    —..Ø5           	
[08/02/2023 11:07:47] Read data (COM9)	
    28 03 9f 5f 00 0a dc 32 28 03 14 00 00 00 00 0a   (.Ÿ_..Ü2(.......	
    3c 00 00 2a 7b 00 00 00 00 00 16 6e dc 02 16 2b   <..*{......nÜ..+	
    cf                                                Ï               	
[08/02/2023 11:07:48] Read data (COM9)	
    28 10 9e 97 00 02 04 00 00 09 93 98 22 28 10 9e   (.ž—......“˜"(.ž	
    97 00 02 d8 35                                    —..Ø5           	
[08/02/2023 11:07:49] Read data (COM9)	
    28 03 9f 5f 00 0a dc 32 28 03 14 00 00 00 00 0a   (.Ÿ_..Ü2(.......	
    42 00 00 2a 92 00 00 00 00 00 16 6e dd 02 16 fd   B..*’......nÝ..ý	
    70                                                p               	
[08/02/2023 11:07:50] Read data (COM9)	
    28 10 9e 97 00 02 04 00 00 09 92 59 e2 28 10 9e   (.ž—......’Yâ(.ž	
    97 00 02 d8 35                                    —..Ø5           	
[08/02/2023 11:07:51] Read data (COM9)	
    28 03 9f 5f 00 0a dc 32 28 03 14 00 00 00 00 0a   (.Ÿ_..Ü2(.......	
    3b 00 00 2a a2 00 00 00 00 00 16 6e df 02 16 1a   ;..*¢......nß...	
    92                                                ’               	
[08/02/2023 11:07:52] Read data (COM9)	
    28 10 9e 97 00 02 04 00 00 09 94 d9 e0 28 10 9e   (.ž—......”Ùà(.ž	
    97 00 02 d8 35                                    —..Ø5           	
[08/02/2023 11:07:53] Read data (COM9)	
    28 03 9f 5f 00 0a dc 32 28 03 14 00 00 00 00 0a   (.Ÿ_..Ü2(.......	
    3c 00 00 2a 79 00 00 00 00 00 16 6e e0 02 16 e0   <..*y......nà..à	
    7b                                                {               	
[08/02/2023 11:07:54] Read data (COM9)	
    28 10 9e 97 00 02 04 00 00 09 99 18 25 28 10 9e   (.ž—......™.%(.ž	
    97 00 02 d8 35                                    —..Ø5           	
[08/02/2023 11:07:55] Read data (COM9)	
    15 03 00 64 00 02 86 c0 28 03 9f 5f 00 0a dc 32   ...d..†À(.Ÿ_..Ü2	
    28 03 14 00 00 00 00 0a 3c 00 00 2a 79 00 00 00   (.......<..*y...	
    00 00 16 6e e1 02 17 70 7b 15 03 00 64 00 02 86   ...ná..p{...d..†	
    c0                                                À               	
[08/02/2023 11:07:56] Read data (COM9)	
    28 10 9e 97 00 02 04 00 00 09 97 99 e1 28 10 9e   (.ž—......—™á(.ž	
    97 00 02 d8 35                                    —..Ø5           	
[08/02/2023 11:07:57] Read data (COM9)	
    28 03 9f 5f 00 0a dc 32 28 03 14 00 00 00 00 0a   (.Ÿ_..Ü2(.......	
    42 00 00 2a 93 00 00 00 00 00 16 6e e2 02 17 08   B..*“......nâ...	
    40                                                @               	
[08/02/2023 11:07:57] Read data (COM9)	
    28 03 9e 03 00 10 9c 17 28 03 20 46 52 4f 3a 33   (.ž...œ.(. FRO:3	
    32 35 35 35 39 32 39 00 00 00 00 00 00 00 00 00   2555929.........	
    00 00 00 00 00 00 00 00 00 00 00 e4 00            ...........ä.   	
[08/02/2023 11:07:58] Read data (COM9)	
    28 10 9e 97 00 02 04 00 00 09 97 99 e1 28 10 9e   (.ž—......—™á(.ž	
    97 00 02 d8 35                                    —..Ø5           	
[08/02/2023 11:07:59] Read data (COM9)	
    28 03 9f 5f 00 0a dc 32 28 03 14 00 00 00 00 0a   (.Ÿ_..Ü2(.......	
    48 00 00 2a a9 00 00 00 00 00 16 6e e4 02 17 bc   H..*©......nä..¼	
    9e                                                ž               	
[08/02/2023 11:08:00] Read data (COM9)	
    28 10 9e 97 00 02 04 00 00 09 97 99 e1 28 10 9e   (.ž—......—™á(.ž	
    97 00 02 d8 35                                    —..Ø5           	
[08/02/2023 11:08:01] Read data (COM9)	
    28 03 9f 5f 00 0a dc 32 28 03 14 00 00 00 00 0a   (.Ÿ_..Ü2(.......	
    4d 00 00 2a bf 00 00 00 00 00 16 6e e5 02 17 62   M..*¿......nå..b	
    15                                                .               	
[08/02/2023 11:08:02] Read data (COM9)	
    28 10 9e 97 00 02 04 00 00 0a 79 19 5d 28 10 9e   (.ž—......y.](.ž	
    97 00 02 d8 35                                    —..Ø5           	
[08/02/2023 11:08:03] Read data (COM9)	
    28 03 9f 5f 00 0a dc 32 28 03 14 00 00 00 00 0a   (.Ÿ_..Ü2(.......	
    4e 00 00 2a c3 00 00 00 00 00 16 6e e7 02 17 15   N..*Ã......nç...	
    45                                                E               	
[08/02/2023 11:08:04] Read data (COM9)	
    28 10 9e 97 00 02 04 00 00 0a f5 18 f8 28 10 9e   (.ž—......õ.ø(.ž	
    97 00 02 d8 35                                    —..Ø5           	
[08/02/2023 11:08:05] Read data (COM9)	
    28 03 9f 5f 00 0a dc 32 28 03 14 00 00 00 00 0a   (.Ÿ_..Ü2(.......	
    c1 00 00 2c a3 00 00 00 00 00 16 6e e8 02 17 1c   Á..,£......nè...	
    2b                                                +               	
[08/02/2023 11:08:06] Read data (COM9)	
    28 10 9e 97 00 02 04 00 00 0b 2b 99 30 28 10 9e   (.ž—......+™0(.ž	
    97 00 02 d8 35                                    —..Ø5           	
[08/02/2023 11:08:07] Read data (COM9)	
    28 03 9f 5f 00 0a dc 32 28 03 14 00 00 00 00 0b   (.Ÿ_..Ü2(.......	
    63 00 00 2f 73 00 00 00 00 00 16 6e e9 02 17 02   c../s......né...	
    c5                                                Å               	
[08/02/2023 11:08:08] Read data (COM9)	
    28 10 9e 97 00 02 04 00 00 0b 5b 98 d4 28 10 9e   (.ž—......[˜Ô(.ž	
    97 00 02 d8 35                                    —..Ø5           	
[08/02/2023 11:08:09] Read data (COM9)	
    28 03 9f 5f 00 0a dc 32 28 03 14 00 00 00 00 0b   (.Ÿ_..Ü2(.......	
    61 00 00 2f 6b 00 00 00 00 00 16 6e eb 02 17 5f   a../k......në.._	
    a4                                                ¤               	
[08/02/2023 11:08:10] Read data (COM9)	
    28 10 9e 97 00 02 04 00 00 0b 95 19 40 28 10 9e   (.ž—......•.@(.ž	
    97 00 02 d8 35                                    —..Ø5           	
[08/02/2023 11:08:11] Read data (COM9)	
    28 03 9f 5f 00 0a dc 32 28 03 14 00 00 00 00 0b   (.Ÿ_..Ü2(.......	
    5b 00 00 2f 53 00 00 00 00 00 16 6e ec 02 17 81   [../S......nì..	
    16                                                .               	
[08/02/2023 11:08:12] Read data (COM9)	
    28 10 9e 97 00 02 04 00 00 0b d9 18 b5 28 10 9e   (.ž—......Ù.µ(.ž	
    97 00 02 d8 35 28 03 9e 03 00 10 9c 17 28 03 20   —..Ø5(.ž...œ.(. 	
    46 52 4f 3a 33 32 35 35 35 39 32 39 00 00 00 00   FRO:32555929....	
    00 00 00 00 00 00 00 00 00 00 00 00 00 00 00 00   ................	
    e4 00                                             ä.              	
[08/02/2023 11:08:13] Read data (COM9)	
    28 03 9f 5f 00 0a dc 32 28 03 14 00 00 00 00 0b   (.Ÿ_..Ü2(.......	
    56 00 00 2f 3e 00 00 00 00 00 16 6e ee 02 17 28   V../>......nî..(	
    7e                                                ~               	
[08/02/2023 11:08:14] Read data (COM9)	
    28 10 9e 97 00 02 04 00 00 0c 15 1a d0 28 10 9e   (.ž—........Ð(.ž	
    97 00 02 d8 35                                    —..Ø5           	
[08/02/2023 11:08:15] Read data (COM9)	
    28 03 9f 5f 00 0a dc 32 28 03 14 00 00 00 00 0b   (.Ÿ_..Ü2(.......	
    59 00 00 2f 4a 00 00 00 00 00 16 6e f0 02 18 f8   Y../J......nð..ø	
    89                                                ‰               	
[08/02/2023 11:08:16] Read data (COM9)	
    28 10 9e 97 00 02 04 00 00 0c 55 1b 20 28 10 9e   (.ž—......U. (.ž	
    97 00 02 d8 35                                    —..Ø5           	
[08/02/2023 11:08:17] Read data (COM9)	
    28 03 9f 5f 00 0a dc 32 28 03 14 00 00 00 00 0b   (.Ÿ_..Ü2(.......	
    61 00 00 2f 6a 00 00 00 00 00 16 6e f1 02 18 3a   a../j......nñ..:	
    9b                                                ›               	
[08/02/2023 11:08:18] Read data (COM9)	
    28 10 9e 97 00 02 04 00 00 0c 94 da b0 28 10 9e   (.ž—......”Ú°(.ž	
    97 00 02 d8 35                                    —..Ø5           	
[08/02/2023 11:08:19] Read data (COM9)	
    28 03 9f 5f 00 0a dc 32 28 03 14 00 00 00 00 0b   (.Ÿ_..Ü2(.......	
    5f 00 00 2f 63 00 00 00 00 00 16 6e f2 02 18 5a   _../c......nò..Z	
    17                                                .               	
[08/02/2023 11:08:20] Read data (COM9)	
    28 10 9e 97 00 02 04 00 00 0c d0 da 83 28 10 9e   (.ž—......ÐÚƒ(.ž	
    97 00 02 d8 35                                    —..Ø5           	
[08/02/2023 11:08:21] Read data (COM9)	
    28 03 9f 5f 00 0a dc 32 28 03 14 00 00 00 00 0b   (.Ÿ_..Ü2(.......	
    62 00 00 2f 71 00 00 00 00 00 16 6e f4 02 18 18   b../q......nô...	
    7f                                                               	
[08/02/2023 11:08:22] Read data (COM9)	
    28 10 9e 97 00 02 04 00 00 0d 0f 9a 8b 28 10 9e   (.ž—.......š‹(.ž	
    97 00 02 d8 35                                    —..Ø5           	
[08/02/2023 11:08:23] Read data (COM9)	
    28 03 9f 5f 00 0a dc 32 28 03 14 00 00 00 00 0b   (.Ÿ_..Ü2(.......	
    62 00 00 2f 6e 00 00 00 00 00 16 6e f5 02 18 2d   b../n......nõ..-	
    6b                                                k               	
[08/02/2023 11:08:24] Read data (COM9)	
    28 10 9e 97 00 02 04 00 00 0d 4e 5a bb 28 10 9e   (.ž—......NZ»(.ž	
    97 00 02 d8 35                                    —..Ø5           	
[08/02/2023 11:08:25] Read data (COM9)	
    28 03 9f 5f 00 0a dc 32 28 03 14 00 00 00 00 0b   (.Ÿ_..Ü2(.......	
    62 00 00 2f 71 00 00 00 00 00 16 6e f7 02 18 e8   b../q......n÷..è	
    7f                                                               	
[08/02/2023 11:08:26] Read data (COM9)	
    28 10 9e 97 00 02 04 00 00 0d 0d 1b 4a 28 10 9e   (.ž—........J(.ž	
    97 00 02 d8 35                                    —..Ø5           	
[08/02/2023 11:08:27] Read data (COM9)	
    28 03 9f 5f 00 0a dc 32 28 03 14 00 00 00 00 0b   (.Ÿ_..Ü2(.......	
    5b 00 00 2f 54 00 00 00 00 00 16 6e f9 02 18 ca   [../T......nù..Ê	
    a2                                                ¢               	
[08/02/2023 11:08:27] Read data (COM9)	
    28 03 9e 03 00 10 9c 17 28 03 20 46 52 4f 3a 33   (.ž...œ.(. FRO:3	
    32 35 35 35 39 32 39 00 00 00 00 00 00 00 00 00   2555929.........	
    00 00 00 00 00 00 00 00 00 00 00 e4 00            ...........ä.   	
[08/02/2023 11:08:28] Read data (COM9)	
    28 10 9e 97 00 02 04 00 00 0c eb 9b 50 28 10 9e   (.ž—......ë›P(.ž	
    97 00 02 d8 35                                    —..Ø5           	
[08/02/2023 11:08:29] Read data (COM9)	
    28 03 9f 5f 00 0a dc 32 28 03 14 00 00 00 00 0b   (.Ÿ_..Ü2(.......	
    5e 00 00 2f 61 00 00 00 00 00 16 6e fa 02 18 11   ^../a......nú...	
    6d                                                m               	
[08/02/2023 11:08:30] Read data (COM9)	
    28 10 9e 97 00 02 04 00 00 0c cc db 4a 28 10 9e   (.ž—......ÌÛJ(.ž	
    97 00 02 d8 35                                    —..Ø5           	
[08/02/2023 11:08:31] Read data (COM9)	
    28 03 9f 5f 00 0a dc 32 28 03 14 00 00 00 00 0b   (.Ÿ_..Ü2(.......	
    5b 00 00 2f 52 00 00 00 00 00 16 6e fb 02 18 75   [../R......nû..u	
    ea                                                ê               	
[08/02/2023 11:08:32] Read data (COM9)	
    28 10 9e 97 00 02 04 00 00 0c ab 9a a0 28 10 9e   (.ž—......«š (.ž	
    97 00 02 d8 35                                    —..Ø5           	
[08/02/2023 11:08:33] Read data (COM9)	
    28 03 9f 5f 00 0a dc 32 28 03 14 00 00 00 00 0b   (.Ÿ_..Ü2(.......	
    5c 00 00 2f 57 00 00 00 00 00 16 6e fd 02 18 c3   \../W......ný..Ã	
    25                                                %               	
[08/02/2023 11:08:34] Read data (COM9)	
    28 10 9e 97 00 02 04 00 00 0c 8d 1b 7a 28 10 9e   (.ž—.......z(.ž	
    97 00 02 d8 35                                    —..Ø5           	
[08/02/2023 11:08:35] Read data (COM9)	
    28 03 9f 5f 00 0a dc 32 28 03 14 00 00 00 00 0b   (.Ÿ_..Ü2(.......	
    60 00 00 2f 67 00 00 00 00 00 16 6e fe 02 19 31   `../g......nþ..1	
    f4                                                ô               	
[08/02/2023 11:08:36] Read data (COM9)	
    28 10 9e 97 00 02 04 00 00 0c 70 da fb 28 10 9e   (.ž—......pÚû(.ž	
    97 00 02 d8 35                                    —..Ø5           	
[08/02/2023 11:08:37] Read data (COM9)	
    28 03 9f 5f 00 0a dc 32 28 03 14 00 00 00 00 0b   (.Ÿ_..Ü2(.......	
    67 00 00 2f 50 00 00 00 00 00 16 6f 00 02 19 f3   g../P......o...ó	
    8e                                                Ž               	
[08/02/2023 11:08:38] Read data (COM9)	
    28 10 9e 97 00 02 04 00 00 0c 51 1a e3 28 10 9e   (.ž—......Q.ã(.ž	
    97 00 02 d8 35                                    —..Ø5           	
[08/02/2023 11:08:39] Read data (COM9)	
    28 03 9f 5f 00 0a dc 32 28 03 14 00 00 00 00 0b   (.Ÿ_..Ü2(.......	
    66 00 00 2f 4b 00 00 00 00 00 16 6f 01 02 19 12   f../K......o....	
    aa                                                ª               	
[08/02/2023 11:08:40] Read data (COM9)	
    28 10 9e 97 00 02 04 00 00 0c 3a 5b 0c 28 10 9e   (.ž—......:[.(.ž	
    97 00 02 d8 35                                    —..Ø5           	
[08/02/2023 11:08:41] Read data (COM9)	
    28 03 9f 5f 00 0a dc 32 28 03 14 00 00 00 00 0b   (.Ÿ_..Ü2(.......	
    5f 00 00 2f 62 00 00 00 00 00 16 6f 03 02 19 cf   _../b......o...Ï	
    24                                                $               	
[08/02/2023 11:08:42] Read data (COM9)	
    28 10 9e 97 00 02 04 00 00 0c 22 5b 06 28 10 9e   (.ž—......"[.(.ž	
    97 00 02 d8 35 28 03 9e 03 00 10 9c 17 28 03 20   —..Ø5(.ž...œ.(. 	
    46 52 4f 3a 33 32 35 35 35 39 32 39 00 00 00 00   FRO:32555929....	
    00 00 00 00 00 00 00 00 00 00 00 00 00 00 00 00   ................	
    e4 00                                             ä.              	
[08/02/2023 11:08:43] Read data (COM9)	
    28 03 9f 5f 00 0a dc 32 28 03 14 00 00 00 00 0b   (.Ÿ_..Ü2(.......	
    6a 00 00 2f 5e 00 00 00 00 00 16 6f 04 02 19 4b   j../^......o...K	
    a2                                                ¢               	
[08/02/2023 11:08:44] Read data (COM9)	
    28 10 9e 97 00 02 04 00 00 0c 08 da d9 28 10 9e   (.ž—.......ÚÙ(.ž	
    97 00 02 d8 35                                    —..Ø5           	
[08/02/2023 11:08:45] Read data (COM9)	
    28 03 9f 5f 00 0a dc 32 28 03 14 00 00 00 00 0b   (.Ÿ_..Ü2(.......	
    69 00 00 2f 5a 00 00 00 00 00 16 6f 06 02 19 bc   i../Z......o...¼	
    53                                                S               	
[08/02/2023 11:08:46] Read data (COM9)	
    28 10 9e 97 00 02 04 00 00 0b f1 18 ab 28 10 9e   (.ž—......ñ.«(.ž	
    97 00 02 d8 35                                    —..Ø5           	
[08/02/2023 11:08:47] Read data (COM9)	
    28 03 9f 5f 00 0a dc 32 28 03 14 00 00 00 00 0b   (.Ÿ_..Ü2(.......	
    63 00 00 2f 74 00 00 00 00 00 16 6f 07 02 19 f8   c../t......o...ø	
    bc                                                ¼               	
[08/02/2023 11:08:48] Read data (COM9)	
    28 10 9e 97 00 02 04 00 00 0b d5 18 b0 28 10 9e   (.ž—......Õ.°(.ž	
    97 00 02 d8 35                                    —..Ø5           	
[08/02/2023 11:08:49] Read data (COM9)	
    28 03 9f 5f 00 0a dc 32 28 03 14 00 00 00 00 0b   (.Ÿ_..Ü2(.......	
    69 00 00 2f 58 00 00 00 00 00 16 6f 09 02 19 87   i../X......o...‡	
    e8                                                è               	
[08/02/2023 11:08:50] Read data (COM9)	
    28 10 9e 97 00 02 04 00 00 0b bf 98 9f 28 10 9e   (.ž—......¿˜Ÿ(.ž	
    97 00 02 d8 35                                    —..Ø5           	
[08/02/2023 11:08:51] Read data (COM9)	
    28 03 9f 5f 00 0a dc 32 28 03 14 00 00 00 00 0b   (.Ÿ_..Ü2(.......	
    65 00 00 2f 48 00 00 00 00 00 16 6f 0a 02 19 2f   e../H......o.../	
    2d                                                -               	
[08/02/2023 11:08:52] Read data (COM9)	
    28 10 9e 97 00 02 04 00 00 0b a8 d8 91 28 10 9e   (.ž—......¨Ø‘(.ž	
    97 00 02 d8 35                                    —..Ø5           	
[08/02/2023 11:08:53] Read data (COM9)	
    28 03 9f 5f 00 0a dc 32 28 03 14 00 00 00 00 0b   (.Ÿ_..Ü2(.......	
    47 00 00 2f 33 00 00 00 00 00 16 6f 0c 02 19 e2   G../3......o...â	
    d0                                                Ð               	
[08/02/2023 11:08:54] Read data (COM9)	
    28 10 9e 97 00 02 04 00 00 0b 93 99 42 28 10 9e   (.ž—......“™B(.ž	
    97 00 02 d8 35                                    —..Ø5           	
[08/02/2023 11:08:55] Read data (COM9)	
    15 03 00 64 00 02 86 c0 28 03 9f 5f 00 0a dc 32   ...d..†À(.Ÿ_..Ü2	
    28 03 14 00 00 00 00 0b 5d 00 00 2f 5a 00 00 00   (.......]../Z...	
    00 00 16 6f 0e 02 19 09 86 15 03 00 64 00 02 86   ...o....†...d..†	
    c0                                                À               	
[08/02/2023 11:08:56] Read data (COM9)	
    28 10 9e 97 00 02 04 00 00 0b 7c d8 ce 28 10 9e   (.ž—......|ØÎ(.ž	
    97 00 02 d8 35                                    —..Ø5           	
[08/02/2023 11:08:57] Read data (COM9)	
    28 03 9f 5f 00 0a dc 32 28 03 14 00 00 00 00 0b   (.Ÿ_..Ü2(.......	
    5c 00 00 2f 57 00 00 00 00 00 16 6f 0e 02 19 f3   \../W......o...ó	
    2a                                                *               	
[08/02/2023 11:08:57] Read data (COM9)	
    28 03 9e 03 00 10 9c 17 28 03 20 46 52 4f 3a 33   (.ž...œ.(. FRO:3	
    32 35 35 35 39 32 39 00 00 00 00 00 00 00 00 00   2555929.........	
    00 00 00 00 00 00 00 00 00 00 00 e4 00            ...........ä.   	
[08/02/2023 11:08:58] Read data (COM9)	
    28 10 9e 97 00 02 04 00 00 0b 67 98 c5 28 10 9e   (.ž—......g˜Å(.ž	
    97 00 02 d8 35                                    —..Ø5           	
[08/02/2023 11:08:59] Read data (COM9)	
    28 03 9f 5f 00 0a dc 32 28 03 14 00 00 00 00 0b   (.Ÿ_..Ü2(.......	
    5c 00 00 2f 58 00 00 00 00 00 16 6f 10 02 19 a3   \../X......o...£	
    38                                                8               	
[08/02/2023 11:09:00] Read data (COM9)	
    28 10 9e 97 00 02 04 00 00 0b 51 18 d3 28 10 9e   (.ž—......Q.Ó(.ž	
    97 00 02 d8 35                                    —..Ø5           	
[08/02/2023 11:09:01] Read data (COM9)	
    28 03 9f 5f 00 0a dc 32 28 03 14 00 00 00 00 0b   (.Ÿ_..Ü2(.......	
    61 00 00 2f 6b 00 00 00 00 00 16 6f 12 02 19 0f   a../k......o....	
    ad                                                ­               	
[08/02/2023 11:09:02] Read data (COM9)	
    28 10 9e 97 00 02 04 00 00 0b 39 19 3d 28 10 9e   (.ž—......9.=(.ž	
    97 00 02 d8 35                                    —..Ø5           	
[08/02/2023 11:09:03] Read data (COM9)	
    28 03 9f 5f 00 0a dc 32 28 03 14 00 00 00 00 0b   (.Ÿ_..Ü2(.......	
    60 00 00 2f 69 00 00 00 00 00 16 6f 13 02 19 94   `../i......o...”	
    d5                                                Õ               	
[08/02/2023 11:09:04] Read data (COM9)	
    28 10 9e 97 00 02 04 00 00 0b 24 d9 34 28 10 9e   (.ž—......$Ù4(.ž	
    97 00 02 d8 35                                    —..Ø5           	
[08/02/2023 11:09:05] Read data (COM9)	
    28 03 9f 5f 00 0a dc 32 28 03 14 00 00 00 00 0b   (.Ÿ_..Ü2(.......	
    5c 00 00 2f 57 00 00 00 00 00 16 6f 15 02 19 83   \../W......o...ƒ	
    2d                                                -               	
[08/02/2023 11:09:06] Read data (COM9)	
    28 10 9e 97 00 02 04 00 00 0b 0f 99 2b 28 10 9e   (.ž—.......™+(.ž	
    97 00 02 d8 35                                    —..Ø5           	
[08/02/2023 11:09:07] Read data (COM9)	
    28 03 9f 5f 00 0a dc 32 28 03 14 00 00 00 00 0b   (.Ÿ_..Ü2(.......	
    67 00 00 2f 53 00 00 00 00 00 16 6f 16 02 19 1d   g../S......o....	
    0e                                                .               	
[08/02/2023 11:09:08] Read data (COM9)	
    28 10 9e 97 00 02 04 00 00 0a f9 18 fd 28 10 9e   (.ž—......ù.ý(.ž	
    97 00 02 d8 35                                    —..Ø5           	
[08/02/2023 11:09:09] Read data (COM9)	
    28 03 9f 5f 00 0a dc 32 28 03 14 00 00 00 00 0b   (.Ÿ_..Ü2(.......	
    6a 00 00 2f 5e 00 00 00 00 00 16 6f 17 02 19 ba   j../^......o...º	
    67                                                g               	
[08/02/2023 11:09:10] Read data (COM9)	
    28 10 9e 97 00 02 04 00 00 0a e4 d8 f4 28 10 9e   (.ž—......äØô(.ž	
    97 00 02 d8 35                                    —..Ø5           	
[08/02/2023 11:09:11] Read data (COM9)	
    28 03 9f 5f 00 0a dc 32 28 03 14 00 00 00 00 0b   (.Ÿ_..Ü2(.......	
    5f 00 00 2f 64 00 00 00 00 00 16 6f 19 02 19 f0   _../d......o...ð	
    6b                                                k               	
[08/02/2023 11:09:12] Read data (COM9)	
    28 10 9e 97 00 02 04 00 00 0a d0 d9 23 28 10 9e   (.ž—......ÐÙ#(.ž	
    97 00 02 d8 35 28 03 9e 03 00 10 9c 17 28 03 20   —..Ø5(.ž...œ.(. 	
    46 52 4f 3a 33 32 35 35 35 39 32 39 00 00 00 00   FRO:32555929....	
    00 00 00 00 00 00 00 00 00 00 00 00 00 00 00 00   ................	
    e4 00                                             ä.              	
[08/02/2023 11:09:13] Read data (COM9)	
    28 03 9f 5f 00 0a dc 32 28 03 14 00 00 00 00 0b   (.Ÿ_..Ü2(.......	
    5f 00 00 2f 63 00 00 00 00 00 16 6f 1b 02 19 4b   _../c......o...K	
    df                                                ß               	
[08/02/2023 11:09:14] Read data (COM9)	
    28 10 9e 97 00 02 04 00 00 0a bc d9 0e 28 10 9e   (.ž—......¼Ù.(.ž	
    97 00 02 d8 35                                    —..Ø5           	
[08/02/2023 11:09:15] Read data (COM9)	
    28 03 9f 5f 00 0a dc 32 28 03 14 00 00 00 00 0b   (.Ÿ_..Ü2(.......	
    68 00 00 2f 54 00 00 00 00 00 16 6f 1c 02 19 68   h../T......o...h	
    7c                                                |               	
[08/02/2023 11:09:16] Read data (COM9)	
    28 10 9e 97 00 02 04 00 00 0a aa 58 c0 28 10 9e   (.ž—......ªXÀ(.ž	
    97 00 02 d8 35                                    —..Ø5           	
[08/02/2023 11:09:17] Read data (COM9)	
    28 03 9f 5f 00 0a dc 32 28 03 14 00 00 00 00 0b   (.Ÿ_..Ü2(.......	
    64 00 00 2f 76 00 00 00 00 00 16 6f 1e 02 19 65   d../v......o...e	
    c1                                                Á               	
[08/02/2023 11:09:18] Read data (COM9)	
    28 10 9e 97 00 02 04 00 00 0a 99 18 d5 28 10 9e   (.ž—......™.Õ(.ž	
    97 00 02 d8 35                                    —..Ø5           	
[08/02/2023 11:09:19] Read data (COM9)	
    28 03 9f 5f 00 0a dc 32 28 03 14 00 00 00 00 0b   (.Ÿ_..Ü2(.......	
    59 00 00 2f 49 00 00 00 00 00 16 6f 1f 02 19 06   Y../I......o....	
    04                                                .               	
[08/02/2023 11:09:20] Read data (COM9)	
    28 10 9e 97 00 02 04 00 00 0a 89 19 19 28 10 9e   (.ž—......‰..(.ž	
    97 00 02 d8 35                                    —..Ø5           	
[08/02/2023 11:09:21] Read data (COM9)	
    28 03 9f 5f 00 0a dc 32 28 03 14 00 00 00 00 0b   (.Ÿ_..Ü2(.......	
    4d 00 00 2e e5 00 00 00 00 00 16 6f 20 02 19 e2   M...å......o ..â	
    96                                                –               	
[08/02/2023 11:09:22] Read data (COM9)	
    28 10 9e 97 00 02 04 00 00 0a 7d 18 9e 28 10 9e   (.ž—......}.ž(.ž	
    97 00 02 d8 35                                    —..Ø5           	
[08/02/2023 11:09:23] Read data (COM9)	
    28 03 9f 5f 00 0a dc 32 28 03 14 00 00 00 00 0b   (.Ÿ_..Ü2(.......	
    3d 00 00 2e d7 00 00 00 00 00 16 6f 22 02 19 c7   =...×......o"..Ç	
    ca                                                Ê               	
[08/02/2023 11:09:24] Read data (COM9)	
    28 10 9e 97 00 02 04 00 00 0a 72 58 9a 28 10 9e   (.ž—......rXš(.ž	
    97 00 02 d8 35                                    —..Ø5           	
[08/02/2023 11:09:25] Read data (COM9)	
    28 03 9f 5f 00 0a dc 32 28 03 14 00 00 00 00 0b   (.Ÿ_..Ü2(.......	
    30 00 00 2e 6d 00 00 00 00 00 16 6f 23 02 19 2c   0...m......o#..,	
    15                                                .               	
[08/02/2023 11:09:26] Read data (COM9)	
    28 10 9e 97 00 02 04 00 00 0a 69 18 91 28 10 9e   (.ž—......i.‘(.ž	
    97 00 02 d8 35                                    —..Ø5           	
[08/02/2023 11:09:27] Read data (COM9)	
    28 03 9f 5f 00 0a dc 32 28 03 14 00 00 00 00 0b   (.Ÿ_..Ü2(.......	
    25 00 00 2e 3f 00 00 00 00 00 16 6f 25 02 19 13   %...?......o%...	
    a2                                                ¢               	
[08/02/2023 11:09:27] Read data (COM9)	
    28 03 9e 03 00 10 9c 17 28 03 20 46 52 4f 3a 33   (.ž...œ.(. FRO:3	
    32 35 35 35 39 32 39 00 00 00 00 00 00 00 00 00   2555929.........	
    00 00 00 00 00 00 00 00 00 00 00 e4 00            ...........ä.   	
[08/02/2023 11:09:28] Read data (COM9)	
    28 10 9e 97 00 02 04 00 00 0a 62 59 56 28 10 9e   (.ž—......bYV(.ž	
    97 00 02 d8 35                                    —..Ø5           	
[08/02/2023 11:09:29] Read data (COM9)	
    28 03 9f 5f 00 0a dc 32 28 03 14 00 00 00 00 0b   (.Ÿ_..Ü2(.......	
    19 00 00 2e 10 00 00 00 00 00 16 6f 27 02 19 15   ...........o'...	
    a7 00                                             §.              	
[08/02/2023 11:09:30] Read data (COM9)	
    28 10 9e 97 00 02 04 00 00 0a 5c d8 86 28 10 9e   (.ž—......\Ø†(.ž	
    97 00 02 d8 35                                    —..Ø5           	
[08/02/2023 11:09:31] Read data (COM9)	
    28 03 9f 5f 00 0a dc 32 28 03 14 00 00 00 00 0b   (.Ÿ_..Ü2(.......	
    01 00 00 2d db 00 00 00 00 00 16 6f 28 02 19 e0   ...-Û......o(..à	
    8d                                                               	
[08/02/2023 11:09:32] Read data (COM9)	
    28 10 9e 97 00 02 04 00 00 09 ee 58 03 28 10 9e   (.ž—......îX.(.ž	
    97 00 02 d8 35                                    —..Ø5           	
[08/02/2023 11:09:33] Read data (COM9)	
    28 03 9f 5f 00 0a dc 32 28 03 14 00 00 00 00 0a   (.Ÿ_..Ü2(.......	
    f5 00 00 2d a8 00 00 00 00 00 16 6f 29 02 19 21   õ..-¨......o)..!	
    1f                                                .               	
[08/02/2023 11:09:34] Read data (COM9)	
    28 10 9e 97 00 02 04 00 00 09 21 18 57 28 10 9e   (.ž—......!.W(.ž	
    97 00 02 d8 35                                    —..Ø5           	
[08/02/2023 11:09:35] Read data (COM9)	
    28 03 9f 5f 00 0a dc 32 28 03 14 00 00 00 00 0a   (.Ÿ_..Ü2(.......	
    89 00 00 2b e7 00 00 00 00 00 16 6f 2a 02 19 c0   ‰..+ç......o*..À	
    e3                                                ã               	
[08/02/2023 11:09:36] Read data (COM9)	
    28 10 9e 97 00 02 04 00 00 08 73 98 3a 28 10 9e   (.ž—......s˜:(.ž	
    97 00 02 d8 35                                    —..Ø5           	
[08/02/2023 11:09:37] Read data (COM9)	
    28 03 9f 5f 00 0a dc 32 28 03 14 00 00 00 00 09   (.Ÿ_..Ü2(.......	
    c7 00 00 28 c0 00 00 00 00 00 16 6f 2c 02 19 1b   Ç..(À......o,...	
    97                                                —               	
[08/02/2023 11:09:38] Read data (COM9)	
    28 10 9e 97 00 02 04 00 00 07 e1 1c 67 28 10 9e   (.ž—......á.g(.ž	
    97 00 02 d8 35                                    —..Ø5           	
[08/02/2023 11:09:39] Read data (COM9)	
    28 03 9f 5f 00 0a dc 32 28 03 14 00 00 00 00 09   (.Ÿ_..Ü2(.......	
    1c 00 00 25 cd 00 00 00 00 00 16 6f 2d 02 19 07   ...%Í......o-...	
    73                                                s               	
[08/02/2023 11:09:40] Read data (COM9)	
    28 10 9e 97 00 02 04 00 00 07 9f 9c 47 28 10 9e   (.ž—......ŸœG(.ž	
    97 00 02 d8 35                                    —..Ø5           	
[08/02/2023 11:09:41] Read data (COM9)	
    28 03 9f 5f 00 0a dc 32 28 03 14 00 00 00 00 08   (.Ÿ_..Ü2(.......	
    85 00 00 23 80 00 00 00 00 00 16 6f 2e 02 19 09   …..#€......o....	
    ec                                                ì               	
[08/02/2023 11:09:42] Read data (COM9)	
    00 28 10 9e 97 00 02 04 00 00 07 49 1d d9 28 10   .(.ž—......I.Ù(.	
    9e 97 00 02 d8 35 28 03 9e 03 00 10 9c 17 28 03   ž—..Ø5(.ž...œ.(.	
    20 46 52 4f 3a 33 32 35 35 35 39 32 39 00 00 00    FRO:32555929...	
    00 00 00 00 00 00 00 00 00 00 00 00 00 00 00 00   ................	
    00 e4 00                                          .ä.             	
[08/02/2023 11:09:43] Read data (COM9)	
    28 03 9f 5f 00 0a dc 32 28 03 14 00 00 00 00 08   (.Ÿ_..Ü2(.......	
    43 00 00 22 4b 00 00 00 00 00 16 6f 30 02 19 0b   C.."K......o0...	
    5c                                                \               	
[08/02/2023 11:09:44] Read data (COM9)	
    28 10 9e 97 00 02 04 00 00 07 1e 5c 27 28 10 9e   (.ž—.......\'(.ž	
    97 00 02 d8 35                                    —..Ø5           	
[08/02/2023 11:09:45] Read data (COM9)	
    28 03 9f 5f 00 0a dc 32 28 03 14 00 00 00 00 07   (.Ÿ_..Ü2(.......	
    ee 00 00 20 ea 00 00 00 00 00 16 6f 30 02 19 dc   î.. ê......o0..Ü	
    ec                                                ì               	
[08/02/2023 11:09:46] Read data (COM9)	
    28 10 9e 97 00 02 04 00 00 06 fd 1c 3e 28 10 9e   (.ž—......ý.>(.ž	
    97 00 02 d8 35                                    —..Ø5           	
[08/02/2023 11:09:47] Read data (COM9)	
    28 03 9f 5f 00 0a dc 32 28 03 14 00 00 00 00 07   (.Ÿ_..Ü2(.......	
    c6 00 00 20 44 00 00 00 00 00 16 6f 31 02 19 93   Æ.. D......o1..“	
    d8                                                Ø               	
[08/02/2023 11:09:48] Read data (COM9)	
    28 10 9e 97 00 02 04 00 00 06 e3 9c 36 28 10 9e   (.ž—......ãœ6(.ž	
    97 00 02 d8 35                                    —..Ø5           	
[08/02/2023 11:09:49] Read data (COM9)	
    28 03 9f 5f 00 0a dc 32 28 03 14 00 00 00 00 07   (.Ÿ_..Ü2(.......	
    ad 00 00 1f dc 00 00 00 00 00 16 6f 32 02 19 cb   ­...Ü......o2..Ë	
    c1                                                Á               	
[08/02/2023 11:09:50] Read data (COM9)	
    28 10 9e 97 00 02 04 00 00 06 bf 9c 0f 28 10 9e   (.ž—......¿œ.(.ž	
    97 00 02 d8 35                                    —..Ø5           	
[08/02/2023 11:09:51] Read data (COM9)	
    28 03 9f 5f 00 0a dc 32 28 03 14 00 00 00 00 07   (.Ÿ_..Ü2(.......	
    97 00 00 1f 5d 00 00 00 00 00 16 6f 34 02 19 3c   —...]......o4..<	
    ed                                                í               	
[08/02/2023 11:09:52] Read data (COM9)	
    28 10 9e 97 00 02 04 00 00 06 a6 5d c5 28 10 9e   (.ž—......¦]Å(.ž	
    97 00 02 d8 35                                    —..Ø5           	
[08/02/2023 11:09:53] Read data (COM9)	
    28 03 9f 5f 00 0a dc 32 28 03 14 00 00 00 00 07   (.Ÿ_..Ü2(.......	
    73 00 00 1e cc 00 00 00 00 00 16 6f 35 02 19 8d   s...Ì......o5..	
    5b                                                [               	
[08/02/2023 11:09:54] Read data (COM9)	
    28 10 9e 97 00 02 04 00 00 06 8f 9c 1b 28 10 9e   (.ž—......œ.(.ž	
    97 00 02 d8 35                                    —..Ø5           	
[08/02/2023 11:09:55] Read data (COM9)	
    15 03 00 64 00 02 86 c0 28 03 9f 5f 00 0a dc 32   ...d..†À(.Ÿ_..Ü2	
    28 03 14 00 00 00 00 07 57 00 00 1e 58 00 00 00   (.......W...X...	
    00 00 16 6f 36 02 19 b1 72 15 03 00 64 00 02 86   ...o6..±r...d..†	
    c0                                                À               	
[08/02/2023 11:09:56] Read data (COM9)	
    28 10 9e 97 00 02 04 00 00 06 7a 5c 5c 28 10 9e   (.ž—......z\\(.ž	
    97 00 02 d8 35                                    —..Ø5           	
[08/02/2023 11:09:57] Read data (COM9)	
    28 03 9f 5f 00 0a dc 32 28 03 14 00 00 00 00 07   (.Ÿ_..Ü2(.......	
    44 00 00 1e 08 00 00 00 00 00 16 6f 36 02 19 e3   D..........o6..ã	
    7e                                                ~               	
[08/02/2023 11:09:57] Read data (COM9)	
    28 03 9e 03 00 10 9c 17 28 03 20 46 52 4f 3a 33   (.ž...œ.(. FRO:3	
    32 35 35 35 39 32 39 00 00 00 00 00 00 00 00 00   2555929.........	
    00 00 00 00 00 00 00 00 00 00 00 e4 00            ...........ä.   	
[08/02/2023 11:09:58] Read data (COM9)	
    28 10 9e 97 00 02 04 00 00 07 70 dd cb 28 10 9e   (.ž—......pÝË(.ž	
    97 00 02 d8 35                                    —..Ø5           	
[08/02/2023 11:09:59] Read data (COM9)	
    28 03 9f 5f 00 0a dc 32 28 03 14 00 00 00 00 07   (.Ÿ_..Ü2(.......	
    39 00 00 1d ba 00 00 00 00 00 16 6f 37 02 19 56   9...º......o7..V	
    e1                                                á               	
[08/02/2023 11:10:00] Read data (COM9)	
    28 10 9e 97 00 02 04 00 00 08 55 19 e0 28 10 9e   (.ž—......U.à(.ž	
    97 00 02 d8 35                                    —..Ø5           	
[08/02/2023 11:10:01] Read data (COM9)	
    28 03 9f 5f 00 0a dc 32 28 03 14 00 00 00 00 08   (.Ÿ_..Ü2(.......	
    2c 00 00 21 c5 00 00 00 00 00 16 6f 38 02 19 3c   ,..!Å......o8..<	
    9c                                                œ               	
[08/02/2023 11:10:02] Read data (COM9)	
    28 10 9e 97 00 02 04 00 00 08 97 98 71 28 10 9e   (.ž—......—˜q(.ž	
    97 00 02 d8 35                                    —..Ø5           	
[08/02/2023 11:10:03] Read data (COM9)	
    28 03 9f 5f 00 0a dc 32 28 03 14 00 00 00 00 08   (.Ÿ_..Ü2(.......	
    ff 00 00 25 2d 00 00 00 00 00 16 6f 39 02 1a 32   ÿ..%-......o9..2	
    6c                                                l               	
[08/02/2023 11:10:04] Read data (COM9)	
    28 03 a0 ef 00 0f 11 c2 28 03 1e 00 00 00 00 00   (. ï...Â(.......	
    00 00 00 00 00 00 00 00 00 00 00 00 00 00 00 00   ................	
    00 00 00 00 00 00 00 00 00 55 74                  .........Ut     	
[08/02/2023 11:10:04] Read data (COM9)	
    28 10 9e 97 00 02 04 00 00 08 de 59 87 28 10 9e   (.ž—......ÞY‡(.ž	
    97 00 02 d8 35                                    —..Ø5           	
[08/02/2023 11:10:05] Read data (COM9)	
    28 03 9f 5f 00 0a dc 32 28 03 14 00 00 00 00 09   (.Ÿ_..Ü2(.......	
    55 00 00 26 8f 00 00 00 00 00 16 6f 3b 02 19 35   U..&......o;..5	
    fc                                                ü               	
[08/02/2023 11:10:06] Read data (COM9)	
    28 10 9e 97 00 02 04 00 00 08 fc d9 9e 28 10 9e   (.ž—......üÙž(.ž	
    97 00 02 d8 35                                    —..Ø5           	
[08/02/2023 11:10:07] Read data (COM9)	
    28 03 9f 5f 00 0a dc 32 28 03 14 00 00 00 00 09   (.Ÿ_..Ü2(.......	
    a8 00 00 27 e9 00 00 00 00 00 16 6f 3c 02 1a e4   ¨..'é......o<..ä	
    37                                                7               	
[08/02/2023 11:10:08] Read data (COM9)	
    28 10 9e 97 00 02 04 00 00 09 11 18 43 28 10 9e   (.ž—........C(.ž	
    97 00 02 d8 35                                    —..Ø5           	
[08/02/2023 11:10:09] Read data (COM9)	
    28 03 9f 5f 00 0a dc 32 28 03 14 00 00 00 00 09   (.Ÿ_..Ü2(.......	
    c4 00 00 28 5b 00 00 00 00 00 16 6f 3d 02 1a 90   Ä..([......o=..	
    b4                                                ´               	
[08/02/2023 11:10:10] Read data (COM9)	
    28 10 9e 97 00 02 04 00 00 09 23 99 96 28 10 9e   (.ž—......#™–(.ž	
    97 00 02 d8 35                                    —..Ø5           	
[08/02/2023 11:10:11] Read data (COM9)	
    28 03 9f 5f 00 0a dc 32 28 03 14 00 00 00 00 09   (.Ÿ_..Ü2(.......	
    d4 00 00 28 9f 00 00 00 00 00 16 6f 3e 02 1a 99   Ô..(Ÿ......o>..™	
    8b                                                ‹               	
[08/02/2023 11:10:12] Read data (COM9)	
    28 10 9e 97 00 02 04 00 00 09 2c d9 92 28 10 9e   (.ž—......,Ù’(.ž	
    97 00 02 d8 35 28 03 9e 03 00 10 9c 17 28 03 20   —..Ø5(.ž...œ.(. 	
    46 52 4f 3a 33 32 35 35 35 39 32 39 00 00 00 00   FRO:32555929....	
    00 00 00 00 00 00 00 00 00 00 00 00 00 00 00 00   ................	
    e4 00                                             ä.              	
[08/02/2023 11:10:13] Read data (COM9)	
    28 03 9f 5f 00 0a dc 32 28 03 14 00 00 00 00 09   (.Ÿ_..Ü2(.......	
    ed 00 00 29 06 00 00 00 00 00 16 6f 40 02 1a 2e   í..).......o@...	
    dc                                                Ü               	
[08/02/2023 11:10:14] Read data (COM9)	
    28 10 9e 97 00 02 04 00 00 09 3a 58 5c 28 10 9e   (.ž—......:X\(.ž	
    97 00 02 d8 35                                    —..Ø5           	
[08/02/2023 11:10:15] Read data (COM9)	
    28 03 9f 5f 00 0a dc 32 28 03 14 00 00 00 00 09   (.Ÿ_..Ü2(.......	
    f9 00 00 29 36 00 00 00 00 00 16 6f 41 02 1a 94   ù..)6......oA..”	
    13                                                .               	
[08/02/2023 11:10:16] Read data (COM9)	
    28 10 9e 97 00 02 04 00 00 09 42 58 7e 28 10 9e   (.ž—......BX~(.ž	
    97 00 02 d8 35                                    —..Ø5           	
[08/02/2023 11:10:17] Read data (COM9)	
    28 03 9f 5f 00 0a dc 32 28 03 14 00 00 00 00 09   (.Ÿ_..Ü2(.......	
    fc 00 00 29 43 00 00 00 00 00 16 6f 42 02 1a 1a   ü..)C......oB...	
    1d                                                .               	
[08/02/2023 11:10:18] Read data (COM9)	
    28 10 9e 97 00 02 04 00 00 09 3c d8 5e 28 10 9e   (.ž—......<Ø^(.ž	
    97 00 02 d8 35                                    —..Ø5           	
[08/02/2023 11:10:19] Read data (COM9)	
    28 03 9f 5f 00 0a dc 32 28 03 14 00 00 00 00 0a   (.Ÿ_..Ü2(.......	
    13 00 00 29 a2 00 00 00 00 00 16 6f 44 02 1a 46   ...)¢......oD..F	
    9e                                                ž               	
[08/02/2023 11:10:20] Read data (COM9)	
    28 10 9e 97 00 02 04 00 00 09 3f 98 5f 28 10 9e   (.ž—......?˜_(.ž	
    97 00 02 d8 35                                    —..Ø5           	
[08/02/2023 11:10:21] Read data (COM9)	
    28 03 9f 5f 00 0a dc 32 28 03 14 00 00 00 00 0a   (.Ÿ_..Ü2(.......	
    0c 00 00 29 86 00 00 00 00 00 16 6f 45 02 1a f6   ...)†......oE..ö	
    a6                                                ¦               	
[08/02/2023 11:10:22] Read data (COM9)	
    28 10 9e 97 00 02 04 00 00 09 47 98 7d 28 10 9e   (.ž—......G˜}(.ž	
    97 00 02 d8 35                                    —..Ø5           	
[08/02/2023 11:10:23] Read data (COM9)	
    28 03 9f 5f 00 0a dc 32 28 03 14 00 00 00 00 0a   (.Ÿ_..Ü2(.......	
    0c 00 00 29 84 00 00 00 00 00 16 6f 46 02 1a 0d   ...)„......oF...	
    1e                                                .               	
[08/02/2023 11:10:24] Read data (COM9)	
    28 10 9e 97 00 02 04 00 00 09 48 d8 79 28 10 9e   (.ž—......HØy(.ž	
    97 00 02 d8 35                                    —..Ø5           	
[08/02/2023 11:10:25] Read data (COM9)	
    28 03 9f 5f 00 0a dc 32 28 03 14 00 00 00 00 0a   (.Ÿ_..Ü2(.......	
    16 00 00 29 ad 00 00 00 00 00 16 6f 47 02 1a 43   ...)­......oG..C	
    89                                                ‰               	
[08/02/2023 11:10:26] Read data (COM9)	
    28 10 9e 97 00 02 04 00 00 09 49 19 b9 28 10 9e   (.ž—......I.¹(.ž	
    97 00 02 d8 35                                    —..Ø5           	
[08/02/2023 11:10:27] Read data (COM9)	
    28 03 9f 5f 00 0a dc 32 28 03 14 00 00 00 00 0a   (.Ÿ_..Ü2(.......	
    18 00 00 29 b6 00 00 00 00 00 16 6f 49 02 1a dd   ...)¶......oI..Ý	
    aa                                                ª               	
[08/02/2023 11:10:27] Read data (COM9)	
    28 03 9e 03 00 10 9c 17 28 03 20 46 52 4f 3a 33   (.ž...œ.(. FRO:3	
    32 35 35 35 39 32 39 00 00 00 00 00 00 00 00 00   2555929.........	
    00 00 00 00 00 00 00 00 00 00 00 e4 00            ...........ä.   	
[08/02/2023 11:10:28] Read data (COM9)	
    28 10 9e 97 00 02 04 00 00 09 4c d9 ba 28 10 9e   (.ž—......LÙº(.ž	
    97 00 02 d8 35                                    —..Ø5           	
[08/02/2023 11:10:29] Read data (COM9)	
    28 03 9f 5f 00 0a dc 32 28 03 14 00 00 00 00 0a   (.Ÿ_..Ü2(.......	
    15 00 00 29 ac 00 00 00 00 00 16 6f 4a 02 1a 95   ...)¬......oJ..•	
    b7                                                ·               	
[08/02/2023 11:10:30] Read data (COM9)	
    28 10 9e 97 00 02 04 00 00 09 4d 18 7a 28 10 9e   (.ž—......M.z(.ž	
    97 00 02 d8 35                                    —..Ø5           	
[08/02/2023 11:10:31] Read data (COM9)	
    28 03 9f 5f 00 0a dc 32 28 03 14 00 00 00 00 0a   (.Ÿ_..Ü2(.......	
    19 00 00 29 ba 00 00 00 00 00 16 6f 4c 02 1a 33   ...)º......oL..3	
    fb                                                û               	
[08/02/2023 11:10:32] Read data (COM9)	
    28 10 9e 97 00 02 04 00 00 09 50 d8 73 28 10 9e   (.ž—......PØs(.ž	
    97 00 02 d8 35                                    —..Ø5           	
[08/02/2023 11:10:33] Read data (COM9)	
    28 03 9f 5f 00 0a dc 32 28 03 14 00 00 00 00 0a   (.Ÿ_..Ü2(.......	
    19 00 00 29 b9 00 00 00 00 00 16 6f 4d 02 1a 6d   ...)¹......oM..m	
    7f                                                               	
[08/02/2023 11:10:34] Read data (COM9)	
    28 10 9e 97 00 02 04 00 00 09 54 d9 b0 28 10 9e   (.ž—......TÙ°(.ž	
    97 00 02 d8 35                                    —..Ø5           	
[08/02/2023 11:10:35] Read data (COM9)	
    28 03 9f 5f 00 0a dc 32 28 03 14 00 00 00 00 0a   (.Ÿ_..Ü2(.......	
    24 00 00 29 e8 00 00 00 00 00 16 6f 4e 02 1a 65   $..)è......oN..e	
    93                                                “               	
[08/02/2023 11:10:36] Read data (COM9)	
    28 10 9e 97 00 02 04 00 00 09 51 19 b3 28 10 9e   (.ž—......Q.³(.ž	
    97 00 02 d8 35                                    —..Ø5           	
[08/02/2023 11:10:37] Read data (COM9)	
    28 03 9f 5f 00 0a dc 32 28 03 14 00 00 00 00 0a   (.Ÿ_..Ü2(.......	
    24 00 00 29 e8 00 00 00 00 00 16 6f 4f 02 1a 34   $..)è......oO..4	
    53                                                S               	
[08/02/2023 11:10:38] Read data (COM9)	
    28 10 9e 97 00 02 04 00 00 09 51 19 b3 28 10 9e   (.ž—......Q.³(.ž	
    97 00 02 d8 35                                    —..Ø5           	
[08/02/2023 11:10:39] Read data (COM9)	
    28 03 9f 5f 00 0a dc 32 28 03 14 00 00 00 00 0a   (.Ÿ_..Ü2(.......	
    20 00 00 29 d9 00 00 00 00 00 16 6f 51 02 1a ab    ..)Ù......oQ..«	
    aa                                                ª               	
[08/02/2023 11:10:40] Read data (COM9)	
    28 10 9e 97 00 02 04 00 00 09 53 98 72 28 10 9e   (.ž—......S˜r(.ž	
    97 00 02 d8 35                                    —..Ø5           	
[08/02/2023 11:10:41] Read data (COM9)	
    28 03 9f 5f 00 0a dc 32 28 03 14 00 00 00 00 0a   (.Ÿ_..Ü2(.......	
    1e 00 00 29 d1 00 00 00 00 00 16 6f 52 02 1a cf   ...)Ñ......oR..Ï	
    da                                                Ú               	
[08/02/2023 11:10:42] Read data (COM9)	
    28 10 9e 97 00 02 04 00 00 09 52 59 b2 28 10 9e   (.ž—......RY²(.ž	
    97 00 02 d8 35 28 03 9e 03 00 10 9c 17 28 03 20   —..Ø5(.ž...œ.(. 	
    46 52 4f 3a 33 32 35 35 35 39 32 39 00 00 00 00   FRO:32555929....	
    00 00 00 00 00 00 00 00 00 00 00 00 00 00 00 00   ................	
    e4 00                                             ä.              	
[08/02/2023 11:10:43] Read data (COM9)	
    28 03 9f 5f 00 0a dc 32 28 03 14 00 00 00 00 0a   (.Ÿ_..Ü2(.......	
    1f 00 00 29 d4 00 00 00 00 00 16 6f 54 02 1a ff   ...)Ô......oT..ÿ	
    17                                                .               	
[08/02/2023 11:10:44] Read data (COM9)	
    28 10 9e 97 00 02 04 00 00 09 52 59 b2 28 10 9e   (.ž—......RY²(.ž	
    97 00 02 d8 35                                    —..Ø5           	
[08/02/2023 11:10:45] Read data (COM9)	
    28 03 9f 5f 00 0a dc 32 28 03 14 00 00 00 00 0a   (.Ÿ_..Ü2(.......	
    24 00 00 29 e9 00 00 00 00 00 16 6f 55 02 1a 11   $..)é......oU...	
    68                                                h               	
[08/02/2023 11:10:46] Read data (COM9)	
    28 10 9e 97 00 02 04 00 00 09 4d 18 7a 28 10 9e   (.ž—......M.z(.ž	
    97 00 02 d8 35                                    —..Ø5           	
[08/02/2023 11:10:47] Read data (COM9)	
    28 03 9f 5f 00 0a dc 32 28 03 14 00 00 00 00 0a   (.Ÿ_..Ü2(.......	
    22 00 00 29 df 00 00 00 00 00 16 6f 56 02 1a 86   "..)ß......oV..†	
    e2                                                â               	
[08/02/2023 11:10:48] Read data (COM9)	
    28 10 9e 97 00 02 04 00 00 09 4a 59 b8 28 10 9e   (.ž—......JY¸(.ž	
    97 00 02 d8 35                                    —..Ø5           	
[08/02/2023 11:10:49] Read data (COM9)	
    28 03 9f 5f 00 0a dc 32 28 03 14 00 00 00 00 0a   (.Ÿ_..Ü2(.......	
    23 00 00 29 b9 00 00 00 00 00 16 6f 57 02 1a f6   #..)¹......oW..ö	
    ab                                                «               	
[08/02/2023 11:10:50] Read data (COM9)	
    28 10 9e 97 00 02 04 00 00 09 4b 98 78 28 10 9e   (.ž—......K˜x(.ž	
    97 00 02 d8 35                                    —..Ø5           	
[08/02/2023 11:10:51] Read data (COM9)	
    28 03 9f 5f 00 0a dc 32 28 03 14 00 00 00 00 0a   (.Ÿ_..Ü2(.......	
    1f 00 00 29 a6 00 00 00 00 00 16 6f 59 02 1a cf   ...)¦......oY..Ï	
    ad                                                ­               	
[08/02/2023 11:10:52] Read data (COM9)	
    28 10 9e 97 00 02 04 00 00 09 4c d9 ba 28 10 9e   (.ž—......LÙº(.ž	
    97 00 02 d8 35                                    —..Ø5           	
[08/02/2023 11:10:53] Read data (COM9)	
    28 03 9f 5f 00 0a dc 32 28 03 14 00 00 00 00 0a   (.Ÿ_..Ü2(.......	
    1a 00 00 29 bd 00 00 00 00 00 16 6f 5a 02 1a 8b   ...)½......oZ..‹	
    4a                                                J               	
[08/02/2023 11:10:54] Read data (COM9)	
    28 10 9e 97 00 02 04 00 00 09 4c d9 ba 28 10 9e   (.ž—......LÙº(.ž	
    97 00 02 d8 35                                    —..Ø5           	
[08/02/2023 11:10:55] Read data (COM9)	
    15 03 00 64 00 02 86 c0 28 03 9f 5f 00 0a dc 32   ...d..†À(.Ÿ_..Ü2	
    28 03 14 00 00 00 00 0a 20 00 00 29 ad 00 00 00   (....... ..)­...	
    00 00 16 6f 5c 02 1a 85 98 15 03 00 64 00 02 86   ...o\..…˜...d..†	
    c0                                                À               	
[08/02/2023 11:10:56] Read data (COM9)	
    28 10 9e 97 00 02 04 00 00 09 4c d9 ba 28 10 9e   (.ž—......LÙº(.ž	
    97 00 02 d8 35                                    —..Ø5           	
[08/02/2023 11:10:57] Read data (COM9)	
    28 03 9f 5f 00 0a dc 32 28 03 14 00 00 00 00 0a   (.Ÿ_..Ü2(.......	
    1e 00 00 29 ce 00 00 00 00 00 16 6f 5d 02 1a 9b   ...)Î......o]..›	
    0d                                                .               	
[08/02/2023 11:10:57] Read data (COM9)	
    28 03 9e 03 00 10 9c 17 28 03 20 46 52 4f 3a 33   (.ž...œ.(. FRO:3	
    32 35 35 35 39 32 39 00 00 00 00 00 00 00 00 00   2555929.........	
    00 00 00 00 00 00 00 00 00 00 00 e4 00            ...........ä.   	
[08/02/2023 11:10:58] Read data (COM9)	
    28 10 9e 97 00 02 04 00 00 09 50 d8 73 28 10 9e   (.ž—......PØs(.ž	
    97 00 02 d8 35                                    —..Ø5           	
[08/02/2023 11:10:59] Read data (COM9)	
    28 03 9f 5f 00 0a dc 32 28 03 14 00 00 00 00 0a   (.Ÿ_..Ü2(.......	
    1e 00 00 29 d0 00 00 00 00 00 16 6f 5e 02 1a 0b   ...)Ð......o^...	
    25                                                %               	
[08/02/2023 11:11:00] Read data (COM9)	
    28 10 9e 97 00 02 04 00 00 09 4e 58 7b 28 10 9e   (.ž—......NX{(.ž	
    97 00 02 d8 35                                    —..Ø5           	
[08/02/2023 11:11:01] Read data (COM9)	
    28 03 9f 5f 00 0a dc 32 28 03 14 00 00 00 00 0a   (.Ÿ_..Ü2(.......	
    29 00 00 29 d2 00 00 00 00 00 16 6f 5f 02 1a 26   )..)Ò......o_..&	
    4b                                                K               	
[08/02/2023 11:11:02] Read data (COM9)	
    28 10 9e 97 00 02 04 00 00 09 4d 18 7a 28 10 9e   (.ž—......M.z(.ž	
    97 00 02 d8 35                                    —..Ø5           	
[08/02/2023 11:11:03] Read data (COM9)	
    28 03 9f 5f 00 0a dc 32 28 03 14 00 00 00 00 0a   (.Ÿ_..Ü2(.......	
    1e 00 00 29 d0 00 00 00 00 00 16 6f 61 02 1a 3b   ...)Ð......oa..;	
    29                                                )               	
[08/02/2023 11:11:04] Read data (COM9)	
    28 10 9e 97 00 02 04 00 00 09 51 19 b3 28 10 9e   (.ž—......Q.³(.ž	
    97 00 02 d8 35                                    —..Ø5           	
[08/02/2023 11:11:05] Read data (COM9)	
    28 03 9f 5f 00 0a dc 32 28 03 14 00 00 00 00 0a   (.Ÿ_..Ü2(.......	
    1d 00 00 29 cb 00 00 00 00 00 16 6f 62 02 1a f9   ...)Ë......ob..ù	
    cc                                                Ì               	
[08/02/2023 11:11:06] Read data (COM9)	
    28 10 9e 97 00 02 04 00 00 09 50 d8 73 28 10 9e   (.ž—......PØs(.ž	
    97 00 02 d8 35                                    —..Ø5           	
[08/02/2023 11:11:07] Read data (COM9)	
    28 03 9f 5f 00 0a dc 32 28 03 14 00 00 00 00 0a   (.Ÿ_..Ü2(.......	
    25 00 00 29 c1 00 00 00 00 00 16 6f 64 02 1a 00   %..)Á......od...	
    07                                                .               	
[08/02/2023 11:11:08] Read data (COM9)	
    28 10 9e 97 00 02 04 00 00 09 50 d8 73 28 10 9e   (.ž—......PØs(.ž	
    97 00 02 d8 35                                    —..Ø5           	
[08/02/2023 11:11:09] Read data (COM9)	
    28 03 9f 5f 00 0a dc 32 28 03 14 00 00 00 00 0a   (.Ÿ_..Ü2(.......	
    1e 00 00 29 d1 00 00 00 00 00 16 6f 65 02 1a 7e   ...)Ñ......oe..~	
    14                                                .               	
[08/02/2023 11:11:10] Read data (COM9)	
    28 10 9e 97 00 02 04 00 00 09 53 98 72 28 10 9e   (.ž—......S˜r(.ž	
    97 00 02 d8 35                                    —..Ø5           	
[08/02/2023 11:11:11] Read data (COM9)	
    28 03 9f 5f 00 0a dc 32 28 03 14 00 00 00 00 0a   (.Ÿ_..Ü2(.......	
    22 00 00 29 e0 00 00 00 00 00 16 6f 66 02 1a 49   "..)à......of..I	
    f9                                                ù               	
[08/02/2023 11:11:12] Read data (COM9)	
    28 10 9e 97 00 02 04 00 00 09 54 d9 b0 28 10 9e   (.ž—......TÙ°(.ž	
    97 00 02 d8 35 28 03 9e 03 00 10 9c 17 28 03 20   —..Ø5(.ž...œ.(. 	
    46 52 4f 3a 33 32 35 35 35 39 32 39 00 00 00 00   FRO:32555929....	
    00 00 00 00 00 00 00 00 00 00 00 00 00 00 00 00   ................	
    e4 00                                             ä.              	
[08/02/2023 11:11:13] Read data (COM9)	
    28 03 9f 5f 00 0a dc 32 28 03 14 00 00 00 00 0a   (.Ÿ_..Ü2(.......	
    21 00 00 29 de 00 00 00 00 00 16 6f 67 02 1a 90   !..)Þ......og..	
    d0                                                Ð               	
[08/02/2023 11:11:14] Read data (COM9)	
    28 10 9e 97 00 02 04 00 00 09 59 18 75 28 10 9e   (.ž—......Y.u(.ž	
    97 00 02 d8 35                                    —..Ø5           	
[08/02/2023 11:11:15] Read data (COM9)	
    28 03 9f 5f 00 0a dc 32 28 03 14 00 00 00 00 0a   (.Ÿ_..Ü2(.......	
    1d 00 00 29 cd 00 00 00 00 00 16 6f 69 02 1a 96   ...)Í......oi..–	
    86                                                †               	
[08/02/2023 11:11:16] Read data (COM9)	
    28 10 9e 97 00 02 04 00 00 09 63 98 66 28 10 9e   (.ž—......c˜f(.ž	
    97 00 02 d8 35                                    —..Ø5           	
[08/02/2023 11:11:17] Read data (COM9)	
    28 03 9f 5f 00 0a dc 32 28 03 14 00 00 00 00 0a   (.Ÿ_..Ü2(.......	
    25 00 00 29 ec 00 00 00 00 00 16 6f 6a 02 1a f1   %..)ì......oj..ñ	
    a8                                                ¨               	
[08/02/2023 11:11:18] Read data (COM9)	
    28 10 9e 97 00 02 04 00 00 09 70 d9 ab 28 10 9e   (.ž—......pÙ«(.ž	
    97 00 02 d8 35                                    —..Ø5           	
[08/02/2023 11:11:19] Read data (COM9)	
    28 03 9f 5f 00 0a dc 32 28 03 14 00 00 00 00 0a   (.Ÿ_..Ü2(.......	
    37 00 00 2a 0a 00 00 00 00 00 16 6f 6b 02 1a 7f   7..*.......ok..	
    2a                                                *               	
[08/02/2023 11:11:20] Read data (COM9)	
    28 10 9e 97 00 02 04 00 00 09 76 59 a9 28 10 9e   (.ž—......vY©(.ž	
    97 00 02 d8 35                                    —..Ø5           	
[08/02/2023 11:11:21] Read data (COM9)	
    28 03 9f 5f 00 0a dc 32 28 03 14 00 00 00 00 0a   (.Ÿ_..Ü2(.......	
    49 00 00 2a 53 00 00 00 00 00 16 6f 6d 02 1a 4e   I..*S......om..N	
    96                                                –               	
[08/02/2023 11:11:22] Read data (COM9)	
    28 10 9e 97 00 02 04 00 00 09 7f 99 af 28 10 9e   (.ž—......™¯(.ž	
    97 00 02 d8 35                                    —..Ø5           	
[08/02/2023 11:11:23] Read data (COM9)	
    28 03 9f 5f 00 0a dc 32 28 03 14 00 00 00 00 0a   (.Ÿ_..Ü2(.......	
    4b 00 00 2a 5f 00 00 00 00 00 16 6f 6e 02 1a 03   K..*_......on...	
    c7                                                Ç               	
[08/02/2023 11:11:24] Read data (COM9)	
    28 10 9e 97 00 02 04 00 00 09 7d 18 6e 28 10 9e   (.ž—......}.n(.ž	
    97 00 02 d8 35                                    —..Ø5           	
[08/02/2023 11:11:25] Read data (COM9)	
    28 03 9f 5f 00 0a dc 32 28 03 14 00 00 00 00 0a   (.Ÿ_..Ü2(.......	
    57 00 00 2a 8f 00 00 00 00 00 16 6f 6f 02 1a e6   W..*......oo..æ	
    cd                                                Í               	
[08/02/2023 11:11:26] Read data (COM9)	
    28 10 9e 97 00 02 04 00 00 09 76 59 a9 28 10 9e   (.ž—......vY©(.ž	
    97 00 02 d8 35                                    —..Ø5           	
[08/02/2023 11:11:27] Read data (COM9)	
    28 03 9f 5f 00 0a dc 32 28 03 14 00 00 00 00 0a   (.Ÿ_..Ü2(.......	
    52 00 00 2a 7a 00 00 00 00 00 16 6f 71 02 1a 51   R..*z......oq..Q	
    07                                                .               	
[08/02/2023 11:11:27] Read data (COM9)	
    28 03 9e 03 00 10 9c 17 28 03 20 46 52 4f 3a 33   (.ž...œ.(. FRO:3	
    32 35 35 35 39 32 39 00 00 00 00 00 00 00 00 00   2555929.........	
    00 00 00 00 00 00 00 00 00 00 00 e4 00            ...........ä.   	
[08/02/2023 11:11:28] Read data (COM9)	
    28 10 9e 97 00 02 04 00 00 09 70 d9 ab 28 10 9e   (.ž—......pÙ«(.ž	
    97 00 02 d8 35                                    —..Ø5           	
[08/02/2023 11:11:29] Read data (COM9)	
    28 03 9f 5f 00 0a dc 32 28 03 14 00 00 00 00 0a   (.Ÿ_..Ü2(.......	
    44 00 00 2a 6d 00 00 00 00 00 16 6f 72 02 1a 79   D..*m......or..y	
    bd                                                ½               	
[08/02/2023 11:11:30] Read data (COM9)	
    28 10 9e 97 00 02 04 00 00 09 6b 99 a0 28 10 9e   (.ž—......k™ (.ž	
    97 00 02 d8 35                                    —..Ø5           	
[08/02/2023 11:11:31] Read data (COM9)	
    28 03 9f 5f 00 0a dc 32 28 03 14 00 00 00 00 08   (.Ÿ_..Ü2(.......	
    38 00 00 21 d2 00 00 00 00 00 16 6f 73 02 1a 56   8..!Ò......os..V	
    30                                                0               	
[08/02/2023 11:11:32] Read data (COM9)	
    28 10 9e 97 00 02 04 00 00 0c 5f 9b 27 28 10 9e   (.ž—......_›'(.ž	
    97 00 02 d8 35                                    —..Ø5           	
[08/02/2023 11:11:33] Read data (COM9)	
    28 03 9f 5f 00 0a dc 32 28 03 14 00 00 00 00 00   (.Ÿ_..Ü2(.......	
    00 00 00 00 3f 00 00 00 00 00 16 6f 73 02 1a 79   ....?......os..y	
    f7                                                ÷               	
[08/02/2023 11:11:34] Read data (COM9)	
    28 10 9e 97 00 02 04 00 00 0b 7f 98 cf 28 10 9e   (.ž—......˜Ï(.ž	
    97 00 02 d8 35                                    —..Ø5           	
[08/02/2023 11:11:35] Read data (COM9)	
    28 03 9f 5f 00 0a dc 32 28 03 14 00 00 00 00 00   (.Ÿ_..Ü2(.......	
    00 00 00 00 3f 00 00 00 00 00 16 6f 73 02 1a 79   ....?......os..y	
    f7                                                ÷               	
[08/02/2023 11:11:36] Read data (COM9)	
    28 10 9e 97 00 02 04 00 00 0b 7f 98 cf 28 10 9e   (.ž—......˜Ï(.ž	
    97 00 02 d8 35                                    —..Ø5           	
[08/02/2023 11:11:37] Read data (COM9)	
    28 03 9f 5f 00 0a dc 32 28 03 14 00 00 00 00 00   (.Ÿ_..Ü2(.......	
    00 00 00 00 3f 00 00 00 00 00 16 6f 73 02 1a 79   ....?......os..y	
    f7                                                ÷               	
[08/02/2023 11:11:38] Read data (COM9)	
    28 10 9e 97 00 02 04 00 00 0b 01 18 ef 28 10 9e   (.ž—........ï(.ž	
    97 00 02 d8 35                                    —..Ø5           	
[08/02/2023 11:11:39] Read data (COM9)	
    28 03 9f 5f 00 0a dc 32 28 03 14 00 00 00 00 00   (.Ÿ_..Ü2(.......	
    00 00 00 00 3d 00 00 00 00 00 16 6f 73 02 1a 72   ....=......os..r	
    4f                                                O               	
[08/02/2023 11:11:40] Read data (COM9)	
    28 10 9e 97 00 02 04 00 00 09 65 18 64 28 10 9e   (.ž—......e.d(.ž	
    97 00 02 d8 35                                    —..Ø5           	
[08/02/2023 11:11:41] Read data (COM9)	
    28 03 9f 5f 00 0a dc 32 28 03 14 00 00 00 00 00   (.Ÿ_..Ü2(.......	
    00 00 00 00 3f 00 00 00 00 00 16 6f 73 02 1a 79   ....?......os..y	
    f7                                                ÷               	
[08/02/2023 11:11:42] Read data (COM9)	
    28 10 9e 97 00 02 04 00 00 08 43 98 2e 28 10 9e   (.ž—......C˜.(.ž	
    97 00 02 d8 35 28 03 9e 03 00 10 9c 17 28 03 20   —..Ø5(.ž...œ.(. 	
    46 52 4f 3a 33 32 35 35 35 39 32 39 00 00 00 00   FRO:32555929....	
    00 00 00 00 00 00 00 00 00 00 00 00 00 00 00 00   ................	
    e4 00                                             ä.              	
[08/02/2023 11:11:43] Read data (COM9)	
    28 03 9f 5f 00 0a dc 32 28 03 14 00 00 00 00 00   (.Ÿ_..Ü2(.......	
    00 00 00 00 3f 00 00 00 00 00 16 6f 73 02 1b b8   ....?......os..¸	
    37                                                7               	
[08/02/2023 11:11:44] Read data (COM9)	
    28 10 9e 97 00 02 04 00 00 07 18 dc 25 28 10 9e   (.ž—.......Ü%(.ž	
    97 00 02 d8 35                                    —..Ø5           	
[08/02/2023 11:11:45] Read data (COM9)	
    28 03 9f 5f 00 0a dc 32 28 03 14 00 00 00 00 00   (.Ÿ_..Ü2(.......	
    00 00 00 00 3f 00 00 00 00 00 16 6f 73 02 1b b8   ....?......os..¸	
    37                                                7               	
[08/02/2023 11:11:46] Read data (COM9)	
    28 10 9e 97 00 02 04 00 00 06 24 dd a4 28 10 9e   (.ž—......$Ý¤(.ž	
    97 00 02 d8 35                                    —..Ø5           	
[08/02/2023 11:11:47] Read data (COM9)	
    28 03 9f 5f 00 0a dc 32 28 03 14 00 00 00 00 00   (.Ÿ_..Ü2(.......	
    00 00 00 00 40 00 00 00 00 00 16 6f 73 02 1b 22   ....@......os.."	
    e2                                                â               	
[08/02/2023 11:11:48] Read data (COM9)	
    28 10 9e 97 00 02 04 00 00 05 5d 1c b6 28 10 9e   (.ž—......].¶(.ž	
    97 00 02 d8 35                                    —..Ø5           	
[08/02/2023 11:11:49] Read data (COM9)	
    28 03 9f 5f 00 0a dc 32 28 03 14 00 00 00 00 00   (.Ÿ_..Ü2(.......	
    00 00 00 00 3f 00 00 00 00 00 16 6f 73 02 1b b8   ....?......os..¸	
    37                                                7               	
[08/02/2023 11:11:50] Read data (COM9)	
    28 10 9e 97 00 02 04 00 00 04 bb 9c ac 28 10 9e   (.ž—......»œ¬(.ž	
    97 00 02 d8 35                                    —..Ø5           	
[08/02/2023 11:11:51] Read data (COM9)	
    28 03 9f 5f 00 0a dc 32 28 03 14 00 00 00 00 00   (.Ÿ_..Ü2(.......	
    00 00 00 00 3f 00 00 00 00 00 16 6f 73 02 1b b8   ....?......os..¸	
    37                                                7               	
[08/02/2023 11:11:52] Read data (COM9)	
    28 10 9e 97 00 02 04 00 00 04 37 9d 09 28 10 9e   (.ž—......7.(.ž	
    97 00 02 d8 35                                    —..Ø5           	
[08/02/2023 11:11:53] Read data (COM9)	
    28 03 9f 5f 00 0a dc 32 28 03 14 00 00 00 00 00   (.Ÿ_..Ü2(.......	
    00 00 00 00 3e 00 00 00 00 00 16 6f 73 02 1b bc   ....>......os..¼	
    cb                                                Ë               	
[08/02/2023 11:11:54] Read data (COM9)	
    28 10 9e 97 00 02 04 00 00 03 cc de ba 28 10 9e   (.ž—......ÌÞº(.ž	
    97 00 02 d8 35                                    —..Ø5           	
[08/02/2023 11:11:55] Read data (COM9)	
    15 03 00 64 00 02 86 c0 28 03 9f 5f 00 0a dc 32   ...d..†À(.Ÿ_..Ü2	
    28 03 14 00 00 00 00 00 00 00 00 00 40 00 00 00   (...........@...	
    00 00 16 6f 73 02 1b 22 e2 15 03 00 64 00 02 86   ...os.."â...d..†	
    c0                                                À               	
[08/02/2023 11:11:56] Read data (COM9)	
    28 10 9e 97 00 02 04 00 00 03 74 de c8 28 10 9e   (.ž—......tÞÈ(.ž	
    97 00 02 d8 35                                    —..Ø5           	
[08/02/2023 11:11:57] Read data (COM9)	
    28 03 9f 5f 00 0a dc 32 28 03 14 00 00 00 00 00   (.Ÿ_..Ü2(.......	
    00 00 00 00 3d 00 00 00 00 00 16 6f 74 02 1b 02   ....=......ot...	
    4e                                                N               	
[08/02/2023 11:11:57] Read data (COM9)	
    28 03 9e 03 00 10 9c 17 28 03 20 46 52 4f 3a 33   (.ž...œ.(. FRO:3	
    32 35 35 35 39 32 39 00 00 00 00 00 00 00 00 00   2555929.........	
    00 00 00 00 00 00 00 00 00 00 00 e4 00            ...........ä.   	
[08/02/2023 11:11:58] Read data (COM9)	
    28 10 9e 97 00 02 04 00 00 03 2d 1e f2 28 10 9e   (.ž—......-.ò(.ž	
    97 00 02 d8 35                                    —..Ø5           	
[08/02/2023 11:11:59] Read data (COM9)	
    28 03 9f 5f 00 0a dc 32 28 03 14 00 00 00 00 00   (.Ÿ_..Ü2(.......	
    00 00 00 00 3f 00 00 00 00 00 16 6f 74 02 1b 09   ....?......ot...	
    f6                                                ö               	
[08/02/2023 11:12:00] Read data (COM9)	
    28 10 9e 97 00 02 04 00 00 07 17 9c 21 28 10 9e   (.ž—.......œ!(.ž	
    97 00 02 d8 35                                    —..Ø5           	
[08/02/2023 11:12:01] Read data (COM9)	
    28 03 9f 5f 00 0a dc 32 28 03 14 00 00 00 00 00   (.Ÿ_..Ü2(.......	
    00 00 00 00 3b 00 00 00 00 00 16 6f 74 02 1b 1c   ....;......ot...	
    c6                                                Æ               	
[08/02/2023 11:12:02] Read data (COM9)	
    28 10 9e 97 00 02 04 00 00 09 b7 98 39 28 10 9e   (.ž—......·˜9(.ž	
    97 00 02 d8 35                                    —..Ø5           	
[08/02/2023 11:12:03] Read data (COM9)	
    28 03 9f 5f 00 0a dc 32 28 03 14 00 00 00 00 00   (.Ÿ_..Ü2(.......	
    00 00 00 00 3f 00 00 00 00 00 16 6f 74 02 1b 09   ....?......ot...	
    f6                                                ö               	
[08/02/2023 11:12:04] Read data (COM9)	
    28 10 9e 97 00 02 04 00 00 0c 10 da d3 28 10 9e   (.ž—.......ÚÓ(.ž	
    97 00 02 d8 35                                    —..Ø5           	
[08/02/2023 11:12:05] Read data (COM9)	
    28 03 9f 5f 00 0a dc 32 28 03 14 00 00 00 00 00   (.Ÿ_..Ü2(.......	
    00 00 00 00 3e 00 00 00 00 00 16 6f 74 02 1b 0d   ....>......ot...	
    0a                                                .               	
[08/02/2023 11:12:06] Read data (COM9)	
    28 10 9e 97 00 02 04 00 00 0c 1f 9a d7 28 10 9e   (.ž—.......š×(.ž	
    97 00 02 d8 35                                    —..Ø5           	
[08/02/2023 11:12:07] Read data (COM9)	
    28 03 9f 5f 00 0a dc 32 28 03 14 00 00 00 00 00   (.Ÿ_..Ü2(.......	
    00 00 00 00 43 00 00 00 00 00 16 6f 74 02 1b 9c   ....C......ot..œ	
    67                                                g               	
[08/02/2023 11:12:08] Read data (COM9)	
    28 10 9e 97 00 02 04 00 00 0c 2a 5a c0 28 10 9e   (.ž—......*ZÀ(.ž	
    97 00 02 d8 35                                    —..Ø5           	
[08/02/2023 11:12:09] Read data (COM9)	
    28 03 9f 5f 00 0a dc 32 28 03 14 00 00 00 00 00   (.Ÿ_..Ü2(.......	
    00 00 00 00 3f 00 00 00 00 00 16 6f 74 02 1b 09   ....?......ot...	
    f6                                                ö               	
[08/02/2023 11:12:10] Read data (COM9)	
    28 10 9e 97 00 02 04 00 00 0c 32 5a ca 28 10 9e   (.ž—......2ZÊ(.ž	
    97 00 02 d8 35                                    —..Ø5           	
[08/02/2023 11:12:11] Read data (COM9)	
    28 03 9f 5f 00 0a dc 32 28 03 14 00 00 00 00 00   (.Ÿ_..Ü2(.......	
    00 00 00 00 3f 00 00 00 00 00 16 6f 74 02 1b 09   ....?......ot...	
    f6                                                ö               	
[08/02/2023 11:12:12] Read data (COM9)	
    28 10 9e 97 00 02 04 00 00 0c 2f 9a c3 28 10 9e   (.ž—....../šÃ(.ž	
    97 00 02 d8 35 28 03 9e 03 00 10 9c 17 28 03 20   —..Ø5(.ž...œ.(. 	
    46 52 4f 3a 33 32 35 35 35 39 32 39 00 00 00 00   FRO:32555929....	
    00 00 00 00 00 00 00 00 00 00 00 00 00 00 00 00   ................	
    e4 00                                             ä.              	
[08/02/2023 11:12:13] Read data (COM9)	
    28 03 9f 5f 00 0a dc 32 28 03 14 00 00 00 00 00   (.Ÿ_..Ü2(.......	
    00 00 00 00 3e 00 00 00 00 00 16 6f 74 02 1c 4c   ....>......ot..L	
    c8                                                È               	
[08/02/2023 11:12:14] Read data (COM9)	
    28 10 9e 97 00 02 04 00 00 0c 2d 1b 02 28 10 9e   (.ž—......-..(.ž	
    97 00 02 d8 35                                    —..Ø5           	
[08/02/2023 11:12:15] Read data (COM9)	
    28 03 9f 5f 00 0a dc 32 28 03 14 00 00 00 00 00   (.Ÿ_..Ü2(.......	
    00 00 00 00 3e 00 00 00 00 00 16 6f 74 02 1c 4c   ....>......ot..L	
    c8                                                È               	
[08/02/2023 11:12:16] Read data (COM9)	
    28 10 9e 97 00 02 04 00 00 0c 2a 5a c0 28 10 9e   (.ž—......*ZÀ(.ž	
    97 00 02 d8 35                                    —..Ø5           	
[08/02/2023 11:12:17] Read data (COM9)	
    28 03 9f 5f 00 0a dc 32 28 03 14 00 00 00 00 00   (.Ÿ_..Ü2(.......	
    00 00 00 00 3f 00 00 00 00 00 16 6f 74 02 1c 48   ....?......ot..H	
    34                                                4               	
[08/02/2023 11:12:18] Read data (COM9)	
    28 10 9e 97 00 02 04 00 00 0c 29 1a c1 28 10 9e   (.ž—......).Á(.ž	
    97 00 02 d8 35                                    —..Ø5           	
[08/02/2023 11:12:19] Read data (COM9)	
    28 03 9f 5f 00 0a dc 32 28 03 14 00 00 00 00 00   (.Ÿ_..Ü2(.......	
    00 00 00 00 3e 00 00 00 00 00 16 6f 74 02 1c 4c   ....>......ot..L	
    c8                                                È               	
[08/02/2023 11:12:20] Read data (COM9)	
    28 10 9e 97 00 02 04 00 00 0c 28 db 01 28 10 9e   (.ž—......(Û.(.ž	
    97 00 02 d8 35                                    —..Ø5           	
[08/02/2023 11:12:21] Read data (COM9)	
    28 03 9f 5f 00 0a dc 32 28 03 14 00 00 00 00 00   (.Ÿ_..Ü2(.......	
    00 00 00 00 3f 00 00 00 00 00 16 6f 74 02 1c 48   ....?......ot..H	
    34                                                4               	
[08/02/2023 11:12:22] Read data (COM9)	
    28 10 9e 97 00 02 04 00 00 0c 35 1b 08 28 10 9e   (.ž—......5..(.ž	
    97 00 02 d8 35                                    —..Ø5           	
[08/02/2023 11:12:23] Read data (COM9)	
    28 03 9f 5f 00 0a dc 32 28 03 14 00 00 00 00 00   (.Ÿ_..Ü2(.......	
    00 00 00 00 3f 00 00 00 00 00 16 6f 74 02 1c 48   ....?......ot..H	
    34                                                4               	
[08/02/2023 11:12:24] Read data (COM9)	
    28 10 9e 97 00 02 04 00 00 0c 3f 9b 0f 28 10 9e   (.ž—......?›.(.ž	
    97 00 02 d8 35                                    —..Ø5           	
[08/02/2023 11:12:25] Read data (COM9)	
    28 03 9f 5f 00 0a dc 32 28 03 14 00 00 00 00 00   (.Ÿ_..Ü2(.......	
    00 00 00 00 3d 00 00 00 00 00 16 6f 74 02 1c 43   ....=......ot..C	
    8c                                                Œ               	
[08/02/2023 11:12:26] Read data (COM9)	
    28 10 9e 97 00 02 04 00 00 0c 43 9a ee 28 10 9e   (.ž—......Cšî(.ž	
    97 00 02 d8 35                                    —..Ø5           	
[08/02/2023 11:12:27] Read data (COM9)	
    28 03 9f 5f 00 0a dc 32 28 03 14 00 00 00 00 00   (.Ÿ_..Ü2(.......	
    00 00 00 00 40 00 00 00 00 00 16 6f 74 02 1c d2   ....@......ot..Ò	
    e1                                                á               	
[08/02/2023 11:12:27] Read data (COM9)	
    28 03 9e 03 00 10 9c 17 28 03 20 46 52 4f 3a 33   (.ž...œ.(. FRO:3	
    32 35 35 35 39 32 39 00 00 00 00 00 00 00 00 00   2555929.........	
    00 00 00 00 00 00 00 00 00 00 00 e4 00            ...........ä.   	
[08/02/2023 11:12:28] Read data (COM9)	
    28 10 9e 97 00 02 04 00 00 0c 43 9a ee 28 10 9e   (.ž—......Cšî(.ž	
    97 00 02 d8 35                                    —..Ø5           	
[08/02/2023 11:12:29] Read data (COM9)	
    28 03 9f 5f 00 0a dc 32 28 03 14 00 00 00 00 00   (.Ÿ_..Ü2(.......	
    00 00 00 00 3f 00 00 00 00 00 16 6f 74 02 1c 48   ....?......ot..H	
    34                                                4               	
[08/02/2023 11:12:30] Read data (COM9)	
    28 10 9e 97 00 02 04 00 00 0c 41 1b 2f 28 10 9e   (.ž—......A./(.ž	
    97 00 02 d8 35                                    —..Ø5           	
[08/02/2023 11:12:31] Read data (COM9)	
    28 03 9f 5f 00 0a dc 32 28 03 14 00 00 00 00 00   (.Ÿ_..Ü2(.......	
    00 00 00 00 3e 00 00 00 00 00 16 6f 74 02 1c 4c   ....>......ot..L	
    c8                                                È               	
[08/02/2023 11:12:32] Read data (COM9)	
    28 10 9e 97 00 02 04 00 00 0c 41 1b 2f 28 10 9e   (.ž—......A./(.ž	
    97 00 02 d8 35                                    —..Ø5           	
[08/02/2023 11:12:33] Read data (COM9)	
    28 03 9f 5f 00 0a dc 32 28 03 14 00 00 00 00 00   (.Ÿ_..Ü2(.......	
    00 00 00 00 3e 00 00 00 00 00 16 6f 74 02 1c 4c   ....>......ot..L	
    c8                                                È               	
[08/02/2023 11:12:34] Read data (COM9)	
    28 10 9e 97 00 02 04 00 00 0c 40 da ef 28 10 9e   (.ž—......@Úï(.ž	
    97 00 02 d8 35                                    —..Ø5           	
[08/02/2023 11:12:35] Read data (COM9)	
    28 03 9f 5f 00 0a dc 32 28 03 14 00 00 00 00 00   (.Ÿ_..Ü2(.......	
    00 00 00 00 3f 00 00 00 00 00 16 6f 74 02 1c 48   ....?......ot..H	
    34                                                4               	
[08/02/2023 11:12:36] Read data (COM9)	
    28 10 9e 97 00 02 04 00 00 0c 3f 9b 0f 28 10 9e   (.ž—......?›.(.ž	
    97 00 02 d8 35                                    —..Ø5           	
[08/02/2023 11:12:37] Read data (COM9)	
    28 03 9f 5f 00 0a dc 32 28 03 14 00 00 00 00 00   (.Ÿ_..Ü2(.......	
    00 00 00 00 3e 00 00 00 00 00 16 6f 74 02 1c 4c   ....>......ot..L	
    c8                                                È               	
[08/02/2023 11:12:38] Read data (COM9)	
    28 10 9e 97 00 02 04 00 00 0c 3e 5a cf 28 10 9e   (.ž—......>ZÏ(.ž	
    97 00 02 d8 35                                    —..Ø5           	
[08/02/2023 11:12:39] Read data (COM9)	
    28 03 9f 5f 00 0a dc 32 28 03 14 00 00 00 00 00   (.Ÿ_..Ü2(.......	
    00 00 00 00 3e 00 00 00 00 00 16 6f 74 02 1c 4c   ....>......ot..L	
    c8                                                È               	
[08/02/2023 11:12:40] Read data (COM9)	
    28 10 9e 97 00 02 04 00 00 0c 3b 9a cc 28 10 9e   (.ž—......;šÌ(.ž	
    97 00 02 d8 35                                    —..Ø5           	
[08/02/2023 11:12:41] Read data (COM9)	
    28 03 9f 5f 00 0a dc 32 28 03 14 00 00 00 00 00   (.Ÿ_..Ü2(.......	
    00 00 00 00 3e 00 00 00 00 00 16 6f 74 02 1c 4c   ....>......ot..L	
    c8                                                È               	
[08/02/2023 11:12:42] Read data (COM9)	
    28 10 9e 97 00 02 04 00 00 0c 39 1b 0d 28 10 9e   (.ž—......9..(.ž	
    97 00 02 d8 35 28 03 9e 03 00 10 9c 17 28 03 20   —..Ø5(.ž...œ.(. 	
    46 52 4f 3a 33 32 35 35 35 39 32 39 00 00 00 00   FRO:32555929....	
    00 00 00 00 00 00 00 00 00 00 00 00 00 00 00 00   ................	
    e4 00                                             ä.              	
[08/02/2023 11:12:43] Read data (COM9)	
    28 03 9f 5f 00 0a dc 32 28 03 14 00 00 00 00 00   (.Ÿ_..Ü2(.......	
    00 00 00 00 3e 00 00 00 00 00 16 6f 74 02 1c 4c   ....>......ot..L	
    c8                                                È               	
[08/02/2023 11:12:44] Read data (COM9)	
    28 10 9e 97 00 02 04 00 00 0c 38 da cd 28 10 9e   (.ž—......8ÚÍ(.ž	
    97 00 02 d8 35                                    —..Ø5           	
[08/02/2023 11:12:45] Read data (COM9)	
    28 03 9f 5f 00 0a dc 32 28 03 14 00 00 00 00 00   (.Ÿ_..Ü2(.......	
    00 00 00 00 3f 00 00 00 00 00 16 6f 74 02 1c 48   ....?......ot..H	
    34                                                4               	
[08/02/2023 11:12:46] Read data (COM9)	
    28 10 9e 97 00 02 04 00 00 0c 36 5b 09 28 10 9e   (.ž—......6[.(.ž	
    97 00 02 d8 35                                    —..Ø5           	
[08/02/2023 11:12:47] Read data (COM9)	
    28 03 9f 5f 00 0a dc 32 28 03 14 00 00 00 00 00   (.Ÿ_..Ü2(.......	
    00 00 00 00 3c 00 00 00 00 00 16 6f 74 02 1c 47   ....<......ot..G	
    70                                                p               	
[08/02/2023 11:12:48] Read data (COM9)	
    28 10 9e 97 00 02 04 00 00 0c 35 1b 08 28 10 9e   (.ž—......5..(.ž	
    97 00 02 d8 35                                    —..Ø5           	
[08/02/2023 11:12:49] Read data (COM9)	
    28 03 9f 5f 00 0a dc 32 28 03 14 00 00 00 00 00   (.Ÿ_..Ü2(.......	
    00 00 00 00 3c 00 00 00 00 00 16 6f 74 02 1c 47   ....<......ot..G	
    70                                                p               	
[08/02/2023 11:12:50] Read data (COM9)	
    28 10 9e 97 00 02 04 00 00 0c 34 da c8 28 10 9e   (.ž—......4ÚÈ(.ž	
    97 00 02 d8 35                                    —..Ø5           	
[08/02/2023 11:12:51] Read data (COM9)	
    28 03 9f 5f 00 0a dc 32 28 03 14 00 00 00 00 00   (.Ÿ_..Ü2(.......	
    00 00 00 00 3e 00 00 00 00 00 16 6f 74 02 1c 4c   ....>......ot..L	
    c8                                                È               	
[08/02/2023 11:12:52] Read data (COM9)	
    28 10 9e 97 00 02 04 00 00 0c 32 5a ca 28 10 9e   (.ž—......2ZÊ(.ž	
    97 00 02 d8 35                                    —..Ø5           	
[08/02/2023 11:12:53] Read data (COM9)	
    28 03 9f 5f 00 0a dc 32 28 03 14 00 00 00 00 00   (.Ÿ_..Ü2(.......	
    00 00 00 00 3f 00 00 00 00 00 16 6f 74 02 1c 48   ....?......ot..H	
    34                                                4               	
[08/02/2023 11:12:54] Read data (COM9)	
    28 10 9e 97 00 02 04 00 00 0c 2d 1b 02 28 10 9e   (.ž—......-..(.ž	
    97 00 02 d8 35                                    —..Ø5           	
[08/02/2023 11:12:55] Read data (COM9)	
    15 03 00 64 00 02 86 c0 28 03 9f 5f 00 0a dc 32   ...d..†À(.Ÿ_..Ü2	
    28 03 14 00 00 00 00 00 00 00 00 00 3e 00 00 00   (...........>...	
    00 00 16 6f 74 02 1c 4c c8 15 03 00 64 00 02 86   ...ot..LÈ...d..†	
    c0                                                À               	
[08/02/2023 11:12:56] Read data (COM9)	
    28 10 9e 97 00 02 04 00 00 0c 2a 5a c0 28 10 9e   (.ž—......*ZÀ(.ž	
    97 00 02 d8 35                                    —..Ø5           	
[08/02/2023 11:12:57] Read data (COM9)	
    28 03 9f 5f 00 0a dc 32 28 03 14 00 00 00 00 00   (.Ÿ_..Ü2(.......	
    00 00 00 00 3b 00 00 00 00 00 16 6f 74 02 1c 5d   ....;......ot..]	
    04                                                .               	
[08/02/2023 11:12:57] Read data (COM9)	
    28 03 9e 03 00 10 9c 17 28 03 20 46 52 4f 3a 33   (.ž...œ.(. FRO:3	
    32 35 35 35 39 32 39 00 00 00 00 00 00 00 00 00   2555929.........	
    00 00 00 00 00 00 00 00 00 00 00 e4 00            ...........ä.   	
[08/02/2023 11:12:58] Read data (COM9)	
    28 10 9e 97 00 02 04 00 00 0c 29 1a c1 28 10 9e   (.ž—......).Á(.ž	
    97 00 02 d8 35                                    —..Ø5           	
[08/02/2023 11:12:59] Read data (COM9)	
    28 03 9f 5f 00 0a dc 32 28 03 14 00 00 00 00 00   (.Ÿ_..Ü2(.......	
    00 00 00 00 3f 00 00 00 00 00 16 6f 74 02 1c 48   ....?......ot..H	
    34                                                4               	
[08/02/2023 11:13:00] Read data (COM9)	
    28 10 9e 97 00 02 04 00 00 0c 31 1a cb 28 10 9e   (.ž—......1.Ë(.ž	
    97 00 02 d8 35                                    —..Ø5           	
[08/02/2023 11:13:01] Read data (COM9)	
    28 03 9f 5f 00 0a dc 32 28 03 14 00 00 00 00 00   (.Ÿ_..Ü2(.......	
    00 00 00 00 3f 00 00 00 00 00 16 6f 74 02 1c 48   ....?......ot..H	
    34                                                4               	
[08/02/2023 11:13:02] Read data (COM9)	
    28 10 9e 97 00 02 04 00 00 0d 5a 5a b4 28 10 9e   (.ž—......ZZ´(.ž	
    97 00 02 d8 35                                    —..Ø5           	
[08/02/2023 11:13:03] Read data (COM9)	
    28 03 9f 5f 00 0a dc 32 28 03 14 00 00 00 00 00   (.Ÿ_..Ü2(.......	
    00 00 00 00 3a 00 00 00 00 00 16 6f 74 02 1c 59   ....:......ot..Y	
    f8                                                ø               	
[08/02/2023 11:13:04] Read data (COM9)	
    28 10 9e 97 00 02 04 00 00 0e 20 db a7 28 10 9e   (.ž—...... Û§(.ž	
    97 00 02 d8 35                                    —..Ø5           	
[08/02/2023 11:13:05] Read data (COM9)	
    28 03 9f 5f 00 0a dc 32 28 03 14 00 00 00 00 00   (.Ÿ_..Ü2(.......	
    00 00 00 00 8b 00 00 00 00 00 16 6f 74 02 1c 0b   ....‹......ot...	
    c6                                                Æ               	
[08/02/2023 11:13:06] Read data (COM9)	
    28 10 9e 97 00 02 04 00 00 0e 29 1b a1 28 10 9e   (.ž—......).¡(.ž	
    97 00 02 d8 35                                    —..Ø5           	
[08/02/2023 11:13:07] Read data (COM9)	
    28 03 9f 5f 00 0a dc 32 28 03 14 00 00 00 00 00   (.Ÿ_..Ü2(.......	
    43 00 00 01 14 00 00 00 00 00 16 6f 74 02 1c 38   C..........ot..8	
    22                                                "               	
[08/02/2023 11:13:08] Read data (COM9)	
    28 10 9e 97 00 02 04 00 00 0e 4a 5b 88 28 10 9e   (.ž—......J[ˆ(.ž	
    97 00 02 d8 35                                    —..Ø5           	
[08/02/2023 11:13:09] Read data (COM9)	
    28 03 9f 5f 00 0a dc 32 28 03 14 00 00 00 00 00   (.Ÿ_..Ü2(.......	
    7f 00 00 02 0c 00 00 00 00 00 16 6f 74 02 1c 7e   ..........ot..~	
    97                                                —               	
[08/02/2023 11:13:10] Read data (COM9)	
    28 10 9e 97 00 02 04 00 00 0e 4f 9b 8b 28 10 9e   (.ž—......O›‹(.ž	
    97 00 02 d8 35                                    —..Ø5           	
[08/02/2023 11:13:11] Read data (COM9)	
    28 03 9f 5f 00 0a dc 32 28 03 14 00 00 00 00 0b   (.Ÿ_..Ü2(.......	
    55 00 00 2f 3b 00 00 00 00 00 16 6f 75 02 1c 4b   U../;......ou..K	
    67                                                g               	
[08/02/2023 11:13:12] Read data (COM9)	
    28 10 9e 97 00 02 04 00 00 0c fc db 5e 28 10 9e   (.ž—......üÛ^(.ž	
    97 00 02 d8 35 28 03 9e 03 00 10 9c 17 28 03 20   —..Ø5(.ž...œ.(. 	
    46 52 4f 3a 33 32 35 35 35 39 32 39 00 00 00 00   FRO:32555929....	
    00 00 00 00 00 00 00 00 00 00 00 00 00 00 00 00   ................	
    e4 00                                             ä.              	
[08/02/2023 11:13:13] Read data (COM9)	
    28 03 9f 5f 00 0a dc 32 28 03 14 00 00 00 00 0b   (.Ÿ_..Ü2(.......	
    55 00 00 2f 39 00 00 00 00 00 16 6f 77 02 1c e1   U../9......ow..á	
    1f                                                .               	
[08/02/2023 11:13:14] Read data (COM9)	
    28 10 9e 97 00 02 04 00 00 0c fa 5b 5c 28 10 9e   (.ž—......ú[\(.ž	
    97 00 02 d8 35                                    —..Ø5           	
[08/02/2023 11:13:15] Read data (COM9)	
    28 03 9f 5f 00 0a dc 32 28 03 14 00 00 00 00 0b   (.Ÿ_..Ü2(.......	
    81 00 00 2f 8b 00 00 00 00 00 16 6f 79 02 1c 09   ../‹......oy...	
    f9                                                ù               	
[08/02/2023 11:13:16] Read data (COM9)	
    28 10 9e 97 00 02 04 00 00 0d 2d 1a 92 28 10 9e   (.ž—......-.’(.ž	
    97 00 02 d8 35                                    —..Ø5           	
[08/02/2023 11:13:17] Read data (COM9)	
    28 03 9f 5f 00 0a dc 32 28 03 14 00 00 00 00 0b   (.Ÿ_..Ü2(.......	
    80 00 00 2f 85 00 00 00 00 00 16 6f 79 02 1c fc   €../…......oy..ü	
    11                                                .               	
[08/02/2023 11:13:18] Read data (COM9)	
    28 10 9e 97 00 02 04 00 00 0d 49 1b 79 28 10 9e   (.ž—......I.y(.ž	
    97 00 02 d8 35                                    —..Ø5           	
[08/02/2023 11:13:19] Read data (COM9)	
    28 03 9f 5f 00 0a dc 32 28 03 14 00 00 00 00 0b   (.Ÿ_..Ü2(.......	
    81 00 00 2f 8b 00 00 00 00 00 16 6f 7b 02 1c a8   ../‹......o{..¨	
    39                                                9               	
[08/02/2023 11:13:20] Read data (COM9)	
    28 10 9e 97 00 02 04 00 00 0d 70 db 6b 28 10 9e   (.ž—......pÛk(.ž	
    97 00 02 d8 35                                    —..Ø5           	
[08/02/2023 11:13:21] Read data (COM9)	
    28 03 9f 5f 00 0a dc 32 28 03 14 00 00 00 00 0b   (.Ÿ_..Ü2(.......	
    7b 00 00 2f a5 00 00 00 00 00 16 6f 7d 02 1d 6c   {../¥......o}..l	
    93                                                “               	
[08/02/2023 11:13:22] Read data (COM9)	
    28 10 9e 97 00 02 04 00 00 0d 95 1a e0 28 10 9e   (.ž—......•.à(.ž	
    97 00 02 d8 35                                    —..Ø5           	
[08/02/2023 11:13:23] Read data (COM9)	
    28 03 9f 5f 00 0a dc 32 28 03 14 00 00 00 00 0b   (.Ÿ_..Ü2(.......	
    79 00 00 2f 9c 00 00 00 00 00 16 6f 7e 02 1d cf   y../œ......o~..Ï	
    0e                                                .               	
[08/02/2023 11:13:24] Read data (COM9)	
    28 10 9e 97 00 02 04 00 00 0d bc db 3e 28 10 9e   (.ž—......¼Û>(.ž	
    97 00 02 d8 35                                    —..Ø5           	
[08/02/2023 11:13:25] Read data (COM9)	
    28 03 9f 5f 00 0a dc 32 28 03 14 00 00 00 00 0b   (.Ÿ_..Ü2(.......	
    76 00 00 2f 8f 00 00 00 00 00 16 6f 80 02 1d ba   v../......o€..º	
    7e                                                ~               	
[08/02/2023 11:13:26] Read data (COM9)	
    28 10 9e 97 00 02 04 00 00 0d e4 da c4 28 10 9e   (.ž—......äÚÄ(.ž	
    97 00 02 d8 35                                    —..Ø5           	
[08/02/2023 11:13:27] Read data (COM9)	
    28 03 9f 5f 00 0a dc 32 28 03 14 00 00 00 00 0b   (.Ÿ_..Ü2(.......	
    75 00 00 2f 8c 00 00 00 00 00 16 6f 82 02 1d 57   u../Œ......o‚..W	
    fb                                                û               	
[08/02/2023 11:13:27] Read data (COM9)	
    28 03 9e 03 00 10 9c 17 28 03 20 46 52 4f 3a 33   (.ž...œ.(. FRO:3	
    32 35 35 35 39 32 39 00 00 00 00 00 00 00 00 00   2555929.........	
    00 00 00 00 00 00 00 00 00 00 00 e4 00            ...........ä.   	
[08/02/2023 11:13:28] Read data (COM9)	
    28 10 9e 97 00 02 04 00 00 0e 08 db b9 28 10 9e   (.ž—.......Û¹(.ž	
    97 00 02 d8 35                                    —..Ø5           	
[08/02/2023 11:13:29] Read data (COM9)	
    28 03 9f 5f 00 0a dc 32 28 03 14 00 00 00 00 0b   (.Ÿ_..Ü2(.......	
    7c 00 00 2f a9 00 00 00 00 00 16 6f 82 02 1d 24   |../©......o‚..$	
    f1                                                ñ               	
[08/02/2023 11:13:30] Read data (COM9)	
    28 10 9e 97 00 02 04 00 00 0d 95 1a e0 28 10 9e   (.ž—......•.à(.ž	
    97 00 02 d8 35                                    —..Ø5           	
[08/02/2023 11:13:31] Read data (COM9)	
    28 03 9f 5f 00 0a dc 32 28 03 14 00 00 00 00 0b   (.Ÿ_..Ü2(.......	
    77 00 00 2f 95 00 00 00 00 00 16 6f 84 02 1d 4f   w../•......o„..O	
    a7                                                §               	
[08/02/2023 11:13:32] Read data (COM9)	
    28 10 9e 97 00 02 04 00 00 0d 45 1b 7c 28 10 9e   (.ž—......E.|(.ž	
    97 00 02 d8 35                                    —..Ø5           	
[08/02/2023 11:13:33] Read data (COM9)	
    28 03 9f 5f 00 0a dc 32 28 03 14 00 00 00 00 0b   (.Ÿ_..Ü2(.......	
    72 00 00 2f 80 00 00 00 00 00 16 6f 86 02 1d 6e   r../€......o†..n	
    68                                                h               	
[08/02/2023 11:13:34] Read data (COM9)	
    28 10 9e 97 00 02 04 00 00 0c f9 1b 5d 28 10 9e   (.ž—......ù.](.ž	
    97 00 02 d8 35                                    —..Ø5           	
[08/02/2023 11:13:35] Read data (COM9)	
    28 03 9f 5f 00 0a dc 32 28 03 14 00 00 00 00 0b   (.Ÿ_..Ü2(.......	
    77 00 00 2f 94 00 00 00 00 00 16 6f 87 02 1d bb   w../”......o‡..»	
    5b                                                [               	
[08/02/2023 11:13:36] Read data (COM9)	
    28 10 9e 97 00 02 04 00 00 0c ad 1a a2 28 10 9e   (.ž—......­.¢(.ž	
    97 00 02 d8 35                                    —..Ø5           	
[08/02/2023 11:13:37] Read data (COM9)	
    28 03 9f 5f 00 0a dc 32 28 03 14 00 00 00 00 0b   (.Ÿ_..Ü2(.......	
    70 00 00 2f 76 00 00 00 00 00 16 6f 89 02 1d c1   p../v......o‰..Á	
    e1                                                á               	
[08/02/2023 11:13:38] Read data (COM9)	
    28 10 9e 97 00 02 04 00 00 0c 66 5b 35 28 10 9e   (.ž—......f[5(.ž	
    97 00 02 d8 35                                    —..Ø5           	
[08/02/2023 11:13:39] Read data (COM9)	
    28 03 9f 5f 00 0a dc 32 28 03 14 00 00 00 00 0b   (.Ÿ_..Ü2(.......	
    76 00 00 2f 90 00 00 00 00 00 16 6f 8b 02 1d af   v../......o‹..¯	
    68                                                h               	
[08/02/2023 11:13:40] Read data (COM9)	
    28 10 9e 97 00 02 04 00 00 0c 21 1b 07 28 10 9e   (.ž—......!..(.ž	
    97 00 02 d8 35                                    —..Ø5           	
[08/02/2023 11:13:41] Read data (COM9)	
    28 03 9f 5f 00 0a dc 32 28 03 14 00 00 00 00 0b   (.Ÿ_..Ü2(.......	
    72 00 00 2f 80 00 00 00 00 00 16 6f 8b 02 1d ff   r../€......o‹..ÿ	
    ab                                                «               	
[08/02/2023 11:13:42] Read data (COM9)	
    28 10 9e 97 00 02 04 00 00 0b dc d8 b6 28 10 9e   (.ž—......ÜØ¶(.ž	
    97 00 02 d8 35 28 03 9e 03 00 10 9c 17 28 03 20   —..Ø5(.ž...œ.(. 	
    46 52 4f 3a 33 32 35 35 35 39 32 39 00 00 00 00   FRO:32555929....	
    00 00 00 00 00 00 00 00 00 00 00 00 00 00 00 00   ................	
    e4 00                                             ä.              	
[08/02/2023 11:13:43] Read data (COM9)	
    28 03 9f 5f 00 0a dc 32 28 03 14 00 00 00 00 0b   (.Ÿ_..Ü2(.......	
    71 00 00 2f 7c 00 00 00 00 00 16 6f 8d 02 1d 60   q../|......o..`	
    f8                                                ø               	
[08/02/2023 11:13:44] Read data (COM9)	
    28 10 9e 97 00 02 04 00 00 0b 97 98 81 28 10 9e   (.ž—......—˜(.ž	
    97 00 02 d8 35                                    —..Ø5           	
[08/02/2023 11:13:45] Read data (COM9)	
    28 03 9f 5f 00 0a dc 32 28 03 14 00 00 00 00 0b   (.Ÿ_..Ü2(.......	
    6b 00 00 2f 60 00 00 00 00 00 16 6f 8f 02 1d 30   k../`......o..0	
    a3                                                £               	
[08/02/2023 11:13:46] Read data (COM9)	
    28 10 9e 97 00 02 04 00 00 0b 53 99 12 28 10 9e   (.ž—......S™.(.ž	
    97 00 02 d8 35                                    —..Ø5           	
[08/02/2023 11:13:47] Read data (COM9)	
    28 03 9f 5f 00 0a dc 32 28 03 14 00 00 00 00 0b   (.Ÿ_..Ü2(.......	
    6d 00 00 2f 6a 00 00 00 00 00 16 6f 90 02 1d a6   m../j......o..¦	
    bf                                                ¿               	
[08/02/2023 11:13:48] Read data (COM9)	
    28 10 9e 97 00 02 04 00 00 0b 0d 18 ea 28 10 9e   (.ž—........ê(.ž	
    97 00 02 d8 35                                    —..Ø5           	
[08/02/2023 11:13:49] Read data (COM9)	
    28 03 9f 5f 00 0a dc 32 28 03 14 00 00 00 00 0b   (.Ÿ_..Ü2(.......	
    78 00 00 2f 96 00 00 00 00 00 16 6f 92 02 1d ee   x../–......o’..î	
    23                                                #               	
[08/02/2023 11:13:50] Read data (COM9)	
    28 10 9e 97 00 02 04 00 00 0a c2 59 2e 28 10 9e   (.ž—......ÂY.(.ž	
    97 00 02 d8 35                                    —..Ø5           	
[08/02/2023 11:13:51] Read data (COM9)	
    28 03 9f 5f 00 0a dc 32 28 03 14 00 00 00 00 0b   (.Ÿ_..Ü2(.......	
    78 00 00 2f 96 00 00 00 00 00 16 6f 93 02 1d bf   x../–......o“..¿	
    e3                                                ã               	
[08/02/2023 11:13:52] Read data (COM9)	
    28 10 9e 97 00 02 04 00 00 0a 75 19 58 28 10 9e   (.ž—......u.X(.ž	
    97 00 02 d8 35                                    —..Ø5           	
[08/02/2023 11:13:53] Read data (COM9)	
    28 03 9f 5f 00 0a dc 32 28 03 14 00 00 00 00 0b   (.Ÿ_..Ü2(.......	
    73 00 00 2f 84 00 00 00 00 00 16 6f 94 02 1d 1a   s../„......o”...	
    5d                                                ]               	
[08/02/2023 11:13:54] Read data (COM9)	
    28 10 9e 97 00 02 04 00 00 0a 27 98 a5 28 10 9e   (.ž—......'˜¥(.ž	
    97 00 02 d8 35                                    —..Ø5           	
[08/02/2023 11:13:55] Read data (COM9)	
    15 03 00 64 00 02 86 c0 28 03 9f 5f 00 0a dc 32   ...d..†À(.Ÿ_..Ü2	
    28 03 14 00 00 00 00 0b 2f 00 00 2e 6a 00 00 00   (......./...j...	
    00 00 16 6f 96 02 1d 79 4c 15 03 00 64 00 02 86   ...o–..yL...d..†	
    c0                                                À               	
[08/02/2023 11:13:56] Read data (COM9)	
    28 10 9e 97 00 02 04 00 00 09 e9 19 c1 28 10 9e   (.ž—......é.Á(.ž	
    97 00 02 d8 35                                    —..Ø5           	
[08/02/2023 11:13:57] Read data (COM9)	
    28 03 9f 5f 00 0a dc 32 28 03 14 00 00 00 00 0a   (.Ÿ_..Ü2(.......	
    e7 00 00 2d 40 00 00 00 00 00 16 6f 97 02 1d af   ç..-@......o—..¯	
    56                                                V               	
[08/02/2023 11:13:57] Read data (COM9)	
    28 03 9e 03 00 10 9c 17 28 03 20 46 52 4f 3a 33   (.ž...œ.(. FRO:3	
    32 35 35 35 39 32 39 00 00 00 00 00 00 00 00 00   2555929.........	
    00 00 00 00 00 00 00 00 00 00 00 e4 00            ...........ä.   	
[08/02/2023 11:13:58] Read data (COM9)	
    28 10 9e 97 00 02 04 00 00 09 bc d9 fe 28 10 9e   (.ž—......¼Ùþ(.ž	
    97 00 02 d8 35                                    —..Ø5           	
[08/02/2023 11:13:59] Read data (COM9)	
    28 03 9f 5f 00 0a dc 32 28 03 14 00 00 00 00 0a   (.Ÿ_..Ü2(.......	
    ab 00 00 2c 44 00 00 00 00 00 16 6f 99 02 1d 6a   «..,D......o™..j	
    53                                                S               	
[08/02/2023 11:14:00] Read data (COM9)	
    28 10 9e 97 00 02 04 00 00 09 99 18 25 28 10 9e   (.ž—......™.%(.ž	
    97 00 02 d8 35                                    —..Ø5           	
[08/02/2023 11:14:01] Read data (COM9)	
    28 03 9f 5f 00 0a dc 32 28 03 14 00 00 00 00 0a   (.Ÿ_..Ü2(.......	
    83 00 00 2b 71 00 00 00 00 00 16 6f 9b 02 1d f8   ƒ..+q......o›..ø	
    8a                                                Š               	
[08/02/2023 11:14:02] Read data (COM9)	
    28 10 9e 97 00 02 04 00 00 09 85 19 ec 28 10 9e   (.ž—......….ì(.ž	
    97 00 02 d8 35                                    —..Ø5           	
[08/02/2023 11:14:03] Read data (COM9)	
    28 03 9f 5f 00 0a dc 32 28 03 14 00 00 00 00 0a   (.Ÿ_..Ü2(.......	
    56 00 00 2a e7 00 00 00 00 00 16 6f 9c 02 1d 42   V..*ç......oœ..B	
    5d                                                ]               	
[08/02/2023 11:14:04] Read data (COM9)	
    28 10 9e 97 00 02 04 00 00 09 73 99 aa 28 10 9e   (.ž—......s™ª(.ž	
    97 00 02 d8 35                                    —..Ø5           	
[08/02/2023 11:14:05] Read data (COM9)	
    28 03 9f 5f 00 0a dc 32 28 03 14 00 00 00 00 0a   (.Ÿ_..Ü2(.......	
    3f 00 00 2a 87 00 00 00 00 00 16 6f 9d 02 1d 44   ?..*‡......o..D	
    b2                                                ²               	
[08/02/2023 11:14:06] Read data (COM9)	
    28 10 9e 97 00 02 04 00 00 09 68 d9 a1 28 10 9e   (.ž—......hÙ¡(.ž	
    97 00 02 d8 35                                    —..Ø5           	
[08/02/2023 11:14:07] Read data (COM9)	
    28 03 9f 5f 00 0a dc 32 28 03 14 00 00 00 00 0a   (.Ÿ_..Ü2(.......	
    2b 00 00 2a 34 00 00 00 00 00 16 6f 9e 02 1d f9   +..*4......ož..ù	
    3b                                                ;               	
[08/02/2023 11:14:08] Read data (COM9)	
    28 10 9e 97 00 02 04 00 00 09 5e 59 b7 28 10 9e   (.ž—......^Y·(.ž	
    97 00 02 d8 35                                    —..Ø5           	
[08/02/2023 11:14:09] Read data (COM9)	
    28 03 9f 5f 00 0a dc 32 28 03 14 00 00 00 00 0a   (.Ÿ_..Ü2(.......	
    20 00 00 2a 04 00 00 00 00 00 16 6f a0 02 1d 2c    ..*.......o ..,	
    f0                                                ð               	
[08/02/2023 11:14:10] Read data (COM9)	
    28 10 9e 97 00 02 04 00 00 09 55 18 70 28 10 9e   (.ž—......U.p(.ž	
    97 00 02 d8 35 00                                 —..Ø5.          	
[08/02/2023 11:14:11] Read data (COM9)	
    28 03 9f 5f 00 0a dc 32 28 03 14 00 00 00 00 0a   (.Ÿ_..Ü2(.......	
    19 00 00 29 e7 00 00 00 00 00 16 6f a1 02 1d d8   ...)ç......o¡..Ø	
    a1                                                ¡               	
[08/02/2023 11:14:12] Read data (COM9)	
    28 10 9e 97 00 02 04 00 00 09 4d 18 7a 28 10 9e   (.ž—......M.z(.ž	
    97 00 02 d8 35 28 03 9e 03 00 10 9c 17 28 03 20   —..Ø5(.ž...œ.(. 	
    46 52 4f 3a 33 32 35 35 35 39 32 39 00 00 00 00   FRO:32555929....	
    00 00 00 00 00 00 00 00 00 00 00 00 00 00 00 00   ................	
    e4 00                                             ä.              	
[08/02/2023 11:14:13] Read data (COM9)	
    28 03 9f 5f 00 0a dc 32 28 03 14 00 00 00 00 0a   (.Ÿ_..Ü2(.......	
    19 00 00 29 ba 00 00 00 00 00 16 6f a2 02 1d 12   ...)º......o¢...	
    0c                                                .               	
[08/02/2023 11:14:14] Read data (COM9)	
    28 10 9e 97 00 02 04 00 00 09 46 59 bd 28 10 9e   (.ž—......FY½(.ž	
    97 00 02 d8 35                                    —..Ø5           	
[08/02/2023 11:14:15] Read data (COM9)	
    28 03 9f 5f 00 0a dc 32 28 03 14 00 00 00 00 0a   (.Ÿ_..Ü2(.......	
    12 00 00 29 a0 00 00 00 00 00 16 6f a4 02 1d cc   ...) ......o¤..Ì	
    12                                                .               	
[08/02/2023 11:14:16] Read data (COM9)	
    28 10 9e 97 00 02 04 00 00 09 40 d9 bf 28 10 9e   (.ž—......@Ù¿(.ž	
    97 00 02 d8 35                                    —..Ø5           	
[08/02/2023 11:14:17] Read data (COM9)	
    28 03 9f 5f 00 0a dc 32 28 03 14 00 00 00 00 0a   (.Ÿ_..Ü2(.......	
    0b 00 00 29 80 00 00 00 00 00 16 6f a5 02 1d ef   ...)€......o¥..ï	
    18                                                .               	
[08/02/2023 11:14:18] Read data (COM9)	
    28 10 9e 97 00 02 04 00 00 09 3a 58 5c 28 10 9e   (.ž—......:X\(.ž	
    97 00 02 d8 35                                    —..Ø5           	
[08/02/2023 11:14:19] Read data (COM9)	
    28 03 9f 5f 00 0a dc 32 28 03 14 00 00 00 00 0a   (.Ÿ_..Ü2(.......	
    06 00 00 29 6e 00 00 00 00 00 16 6f a6 02 1d b1   ...)n......o¦..±	
    36                                                6               	
[08/02/2023 11:14:20] Read data (COM9)	
    28 10 9e 97 00 02 04 00 00 09 36 58 59 28 10 9e   (.ž—......6XY(.ž	
    97 00 02 d8 35                                    —..Ø5           	
[08/02/2023 11:14:21] Read data (COM9)	
    28 03 9f 5f 00 0a dc 32 28 03 14 00 00 00 00 09   (.Ÿ_..Ü2(.......	
    f6 00 00 29 2b 00 00 00 00 00 16 6f a7 02 1d 14   ö..)+......o§...	
    4e                                                N               	
[08/02/2023 11:14:22] Read data (COM9)	
    28 10 9e 97 00 02 04 00 00 09 e8 d8 01 28 10 9e   (.ž—......èØ.(.ž	
    97 00 02 d8 35                                    —..Ø5           	
[08/02/2023 11:14:23] Read data (COM9)	
    28 03 9f 5f 00 0a dc 32 28 03 14 00 00 00 00 00   (.Ÿ_..Ü2(.......	
    00 00 00 00 3c 00 00 00 00 00 16 6f a7 02 1d 77   ....<......o§..w	
    49                                                I               	
[08/02/2023 11:14:24] Read data (COM9)	
    28 10 9e 97 00 02 04 00 00 0d 23 9b 56 28 10 9e   (.ž—......#›V(.ž	
    97 00 02 d8 35                                    —..Ø5           	
[08/02/2023 11:14:25] Read data (COM9)	
    28 03 9f 5f 00 0a dc 32 28 03 14 00 00 00 00 00   (.Ÿ_..Ü2(.......	
    00 00 00 00 3c 00 00 00 00 00 16 6f a7 02 1d 77   ....<......o§..w	
    49                                                I               	
[08/02/2023 11:14:26] Read data (COM9)	
    28 10 9e 97 00 02 04 00 00 0a 77 98 99 28 10 9e   (.ž—......w˜™(.ž	
    97 00 02 d8 35                                    —..Ø5           	
[08/02/2023 11:14:27] Read data (COM9)	
    28 03 9f 5f 00 0a dc 32 28 03 14 00 00 00 00 00   (.Ÿ_..Ü2(.......	
    00 00 00 00 3e 00 00 00 00 00 16 6f a7 02 1d 7c   ....>......o§..|	
    f1                                                ñ               	
[08/02/2023 11:14:27] Read data (COM9)	
    28 03 9e 03 00 10 9c 17 28 03 20 46 52 4f 3a 33   (.ž...œ.(. FRO:3	
    32 35 35 35 39 32 39 00 00 00 00 00 00 00 00 00   2555929.........	
    00 00 00 00 00 00 00 00 00 00 00 e4 00            ...........ä.   	
[08/02/2023 11:14:28] Read data (COM9)	
    28 10 9e 97 00 02 04 00 00 0a 53 98 82 28 10 9e   (.ž—......S˜‚(.ž	
    97 00 02 d8 35                                    —..Ø5           	
[08/02/2023 11:14:29] Read data (COM9)	
    28 03 9f 5f 00 0a dc 32 28 03 14 00 00 00 00 00   (.Ÿ_..Ü2(.......	
